  can0  097   [8]  7F 80 07 E4 00 00 00 3E
  can0  294   [8]  00 00 00 03 A9 AE 00 0B
  can0  0E5   [4]  00 00 00 32
  can0  136   [8]  00 00 00 06 00 6C 00 33
  can0  13A   [8]  00 00 00 00 00 00 00 37
  can0  13F   [8]  00 41 00 41 00 00 00 38
  can0  17C   [8]  00 33 02 E5 00 27 00 3D
  can0  182   [8]  00 00 02 E5 00 00 00 35
  can0  39B   [2]  00 2F
  can0  255   [8]  00 00 00 00 55 55 2C 2A
  can0  039   [3]  00 00 1B
  can0  1A4   [8]  00 00 00 00 00 00 00 09
  can0  164   [8]  04 10 00 10 B5 00 00 34
  can0  1A6   [8]  04 00 00 10 B5 00 00 02
  can0  097   [8]  7F 80 07 E0 00 00 00 14
  can0  158   [8]  00 00 02 D2 00 00 00 36
  can0  188   [6]  00 00 00 01 00 24
  can0  0E5   [4]  00 00 00 14
  can0  136   [8]  00 00 00 06 00 6C 00 15
  can0  13A   [8]  00 00 00 00 00 00 00 19
  can0  13F   [8]  00 41 00 41 00 00 00 1A
  can0  17C   [8]  00 33 02 E4 00 27 00 10
  can0  182   [8]  00 00 02 E4 00 00 00 18
  can0  164   [8]  04 10 00 10 B5 00 00 07
  can0  158   [8]  00 00 02 D2 00 00 00 09
  can0  097   [8]  7F 80 07 E4 00 00 00 2F
  can0  188   [6]  00 00 00 01 00 33
  can0  0E5   [4]  00 00 00 23
  can0  136   [8]  00 00 00 06 00 6B 00 25
  can0  13A   [8]  00 00 00 00 00 00 00 28
  can0  13F   [8]  00 41 00 41 00 00 00 29
  can0  17C   [8]  00 33 02 E4 00 27 00 2F
  can0  182   [8]  00 00 02 E4 00 00 00 27
  can0  1DC   [4]  02 02 E4 17
  can0  1A4   [8]  00 00 00 00 00 00 00 18
  can0  1AA   [8]  7F FF 00 00 00 00 66 12
  can0  1B0   [7]  80 80 FF FB 00 00 13
  can0  1D0   [8]  00 00 00 00 00 00 00 0A
  can0  164   [8]  04 10 00 10 B5 00 00 16
  can0  1A6   [8]  04 00 00 10 B5 00 00 11
  can0  097   [8]  7F 80 07 E4 00 00 00 3E
  can0  158   [8]  00 00 02 D2 00 00 00 18
  can0  188   [6]  00 00 00 01 00 06
  can0  294   [8]  00 00 00 03 A9 AE 00 1A
  can0  0E5   [4]  00 00 00 32
  can0  136   [8]  00 00 00 06 00 6B 00 34
  can0  13A   [8]  00 00 00 00 00 00 00 37
  can0  13F   [8]  00 41 00 41 00 0A 00 3E
  can0  17C   [8]  00 33 02 E5 00 27 00 3D
  can0  182   [8]  00 00 02 E5 00 00 00 35
  can0  3C5   [8]  00 00 00 00 00 00 00 13
  can0  3C6   [8]  00 00 00 00 00 00 00 12
  can0  255   [8]  00 00 00 00 55 55 2D 29
  can0  164   [8]  04 10 00 10 B5 00 00 25
  can0  158   [8]  00 00 02 D1 00 00 00 28
  can0  097   [8]  7F 80 07 E4 00 00 00 01
  can0  188   [6]  00 00 00 01 00 15
  can0  6C4   [1]  02
  can0  0E5   [4]  00 00 00 05
  can0  136   [8]  00 00 00 06 00 6B 00 07
  can0  13A   [8]  00 00 00 00 00 00 00 0A
  can0  13F   [8]  00 41 00 41 00 00 00 0B
  can0  17C   [8]  00 33 02 E5 00 28 00 0F
  can0  182   [8]  00 00 02 E5 00 00 00 08
  can0  1DC   [4]  02 02 E5 25
  can0  039   [3]  00 00 2A
  can0  1A4   [8]  00 00 00 00 00 00 00 27
  can0  1AA   [8]  7F FF 00 00 00 00 66 21
  can0  1B0   [7]  80 80 FF FB 00 00 22
  can0  1D0   [8]  00 00 00 00 00 00 00 0A
  can0  164   [8]  04 10 00 10 B5 00 00 34
  can0  158   [8]  00 00 02 D1 00 00 00 37
  can0  097   [8]  7F 80 07 E4 00 00 00 10
  can0  188   [6]  00 00 00 01 00 24
  can0  1A6   [8]  04 00 00 10 B5 00 00 20
  can0  0E5   [4]  00 00 00 14
  can0  136   [8]  00 00 00 06 00 6C 00 15
  can0  13A   [8]  00 00 00 00 00 00 00 19
  can0  13F   [8]  00 41 00 41 00 00 00 1A
  can0  17C   [8]  00 33 02 E6 00 27 00 1E
  can0  182   [8]  00 00 02 E5 00 00 00 17
  can0  305   [7]  C0 94 00 00 00 00 07
  can0  164   [8]  04 10 00 10 B5 00 00 07
  can0  097   [8]  7F C0 07 E4 00 00 00 2B
  can0  158   [8]  00 00 02 D1 00 00 00 0A
  can0  188   [6]  00 00 00 01 00 33
  can0  0E5   [4]  00 00 00 23
  can0  136   [8]  00 00 00 06 00 6C 00 24
  can0  13A   [8]  00 00 00 00 00 00 00 28
  can0  13F   [8]  00 42 00 41 00 0A 00 2E
  can0  17C   [8]  00 33 02 E6 00 27 00 2D
  can0  182   [8]  00 00 02 E6 00 00 00 25
  can0  1DC   [4]  02 02 E6 33
  can0  320   [8]  00 00 00 00 00 00 00 30
  can0  324   [8]  6F 36 15 54 00 00 00 3F
  can0  328   [8]  00 00 00 00 00 80 00 21
  can0  40C   [8]  00 00 00 00 04 00 00 13
  can0  441   [8]  09 FF FF FF FF FF FF 11
  can0  454   [8]  63 F4 02 3E 9C 00 00 16
  can0  6C1   [1]  05
  can0  1A4   [8]  00 00 00 00 00 00 00 36
  can0  1AA   [8]  7F FF 00 00 00 00 66 30
  can0  1B0   [7]  80 40 FF FB 00 00 35
  can0  1D0   [8]  00 00 00 00 00 00 00 0A
  can0  164   [8]  04 10 00 10 B5 00 00 16
  can0  097   [8]  7F C0 07 E4 00 00 00 3A
  can0  158   [8]  00 00 02 D2 00 00 00 18
  can0  188   [6]  00 00 00 01 00 06
  can0  294   [8]  00 00 00 03 A9 AE 00 29
  can0  1A6   [8]  04 00 00 10 B5 00 00 3F
  can0  309   [8]  00 00 00 00 00 00 00 75
  can0  367   [8]  F8 87 1E D2 37 7E FF 34
  can0  374   [7]  2B 00 00 00 00 00 3A
  can0  0E5   [4]  00 00 00 32
  can0  136   [8]  00 00 00 06 00 6B 00 34
  can0  13A   [8]  00 00 00 00 00 00 00 37
  can0  13F   [8]  00 42 00 41 00 00 00 37
  can0  17C   [8]  00 33 02 E7 00 27 00 3B
  can0  182   [8]  00 00 02 E6 00 00 00 34
  can0  255   [8]  00 00 00 00 55 55 2E 28
  can0  164   [8]  04 10 00 10 B5 00 00 25
  can0  097   [8]  7F C0 07 E4 00 00 00 0D
  can0  158   [8]  00 00 02 D2 00 00 00 27
  can0  188   [6]  00 00 00 01 00 15
  can0  0E5   [4]  00 00 00 05
  can0  136   [8]  00 00 00 06 00 6A 00 08
  can0  13A   [8]  00 00 00 00 00 00 00 0A
  can0  13F   [8]  00 42 00 41 00 0A 00 00
  can0  17C   [8]  00 33 02 E7 00 27 00 0E
  can0  182   [8]  00 00 02 E7 00 00 00 06
  can0  1DC   [4]  02 02 E7 05
  can0  333   [7]  00 00 00 00 00 00 3C
  can0  039   [3]  00 00 39
  can0  1A4   [8]  00 00 00 00 00 00 00 09
  can0  1AA   [8]  7F FF 00 00 00 00 67 02
  can0  1B0   [7]  80 40 FF FB 00 00 08
  can0  1D0   [8]  00 00 00 00 00 00 00 0A
  can0  164   [8]  04 10 00 10 B5 00 00 34
  can0  097   [8]  7F C0 07 E4 00 00 00 1C
  can0  158   [8]  00 00 02 D2 00 00 00 36
  can0  188   [6]  00 00 00 01 00 24
  can0  1A6   [8]  04 00 00 10 B5 00 00 02
  can0  0E5   [4]  00 00 00 14
  can0  136   [8]  00 00 00 06 00 6A 00 17
  can0  13A   [8]  00 00 00 00 00 00 00 19
  can0  13F   [8]  00 42 00 41 00 00 00 19
  can0  17C   [8]  00 33 02 E7 00 27 00 1D
  can0  182   [8]  00 00 02 E7 00 00 00 15
  can0  39B   [2]  00 3E
  can0  158   [8]  00 00 02 D1 00 00 00 0A
  can0  097   [8]  7F C0 07 E4 00 00 00 2B
  can0  164   [8]  04 10 00 10 B5 00 00 07
  can0  188   [6]  00 00 00 01 00 33
  can0  0E5   [4]  00 00 00 23
  can0  136   [8]  00 00 00 06 00 6B 00 25
  can0  13A   [8]  00 00 00 00 00 00 00 28
  can0  13F   [8]  00 42 00 41 00 00 00 28
  can0  17C   [8]  00 33 02 E6 00 27 00 2D
  can0  182   [8]  00 00 02 E7 00 00 00 24
  can0  1DC   [4]  02 02 E6 15
  can0  1A4   [8]  00 00 00 00 00 00 00 18
  can0  1AA   [8]  7F FF 00 00 00 00 66 12
  can0  1B0   [7]  80 40 FF FB 00 00 17
  can0  1D0   [8]  00 00 00 00 00 00 00 0A
  can0  158   [8]  00 00 02 D1 00 00 00 19
  can0  097   [8]  7F 80 07 E4 00 00 00 3E
  can0  164   [8]  04 10 00 10 B5 00 00 16
  can0  188   [6]  00 00 00 01 00 06
  can0  294   [8]  00 00 00 03 A9 AE 00 38
  can0  1A6   [8]  04 00 00 10 B5 00 00 11
  can0  0E5   [4]  00 00 00 32
  can0  136   [8]  00 00 00 06 00 6C 00 33
  can0  13A   [8]  00 00 00 00 00 00 00 37
  can0  13F   [8]  00 41 00 41 FF CE 00 30
  can0  17C   [8]  00 33 02 E2 00 27 00 30
  can0  182   [8]  00 00 02 E2 00 00 00 38
  can0  255   [8]  00 00 00 00 55 55 2F 27
  can0  158   [8]  00 00 02 D1 00 00 00 28
  can0  097   [8]  7F 80 07 E4 00 00 00 01
  can0  164   [8]  04 10 00 10 B5 00 00 25
  can0  188   [6]  00 00 00 01 00 15
  can0  0E5   [4]  00 00 00 05
  can0  136   [8]  00 00 00 06 00 6C 00 06
  can0  13A   [8]  00 00 00 00 00 00 00 0A
  can0  13F   [8]  00 41 00 41 00 00 00 0B
  can0  17C   [8]  00 33 02 E1 00 28 00 03
  can0  182   [8]  00 00 02 E2 00 00 00 0B
  can0  1DC   [4]  02 02 E1 29
  can0  039   [3]  00 00 0C
  can0  1A4   [8]  00 00 00 00 00 00 00 27
  can0  1AA   [8]  7F FF 00 00 00 00 66 21
  can0  1B0   [7]  80 80 FF FB 00 00 22
  can0  1D0   [8]  00 00 00 00 00 00 00 0A
  can0  158   [8]  00 00 02 D2 00 00 00 36
  can0  097   [8]  7F 80 07 E0 00 00 00 14
  can0  164   [8]  04 10 00 10 B5 00 00 34
  can0  188   [6]  00 00 00 01 00 24
  can0  1A6   [8]  04 00 00 10 B5 00 00 20
  can0  0E5   [4]  00 00 00 14
  can0  136   [8]  00 00 00 06 00 6C 00 15
  can0  13A   [8]  00 00 00 00 00 00 00 19
  can0  13F   [8]  00 41 00 40 00 00 00 1B
  can0  17C   [8]  00 33 02 E3 00 27 00 11
  can0  182   [8]  00 00 02 E2 00 00 00 1A
  can0  6E5   [1]  1E
  can0  555   [5]  00 00 00 04 32
  can0  158   [8]  00 00 02 D1 00 00 00 0A
  can0  097   [8]  7F C0 07 E0 00 00 00 2F
  can0  164   [8]  04 10 00 10 B5 00 00 07
  can0  188   [6]  00 00 00 01 00 33
  can0  0E5   [4]  00 00 00 23
  can0  136   [8]  00 00 00 06 00 6B 00 25
  can0  13A   [8]  00 00 00 00 00 00 00 28
  can0  13F   [8]  00 41 00 41 00 14 00 24
  can0  17C   [8]  00 33 02 E4 00 27 00 2F
  can0  182   [8]  00 00 02 E4 00 00 00 27
  can0  1DC   [4]  02 02 E4 35
  can0  1A4   [8]  00 00 00 00 00 00 00 36
  can0  1AA   [8]  7F FF 00 00 00 00 67 3F
  can0  1B0   [7]  80 40 FF FB 00 00 35
  can0  1D0   [8]  00 00 00 00 00 00 00 0A
  can0  158   [8]  00 00 02 D1 00 00 00 19
  can0  097   [8]  7F 80 07 E4 00 00 00 3E
  can0  164   [8]  04 10 00 10 B5 00 00 16
  can0  188   [6]  00 00 00 01 00 06
  can0  294   [8]  00 00 00 03 A9 AE 00 0B
  can0  1A6   [8]  04 00 00 10 B5 00 00 3F
  can0  0E5   [4]  00 00 00 32
  can0  136   [8]  00 00 00 06 00 6B 00 34
  can0  13A   [8]  00 00 00 00 00 00 00 37
  can0  13F   [8]  00 41 00 41 00 00 00 38
  can0  17C   [8]  00 33 02 E4 00 27 00 3E
  can0  182   [8]  00 00 02 E4 00 00 00 36
  can0  305   [7]  C0 94 00 00 00 00 16
  can0  255   [8]  00 00 00 00 55 55 30 26
  can0  158   [8]  00 00 02 D1 00 00 00 28
  can0  097   [8]  7F 80 07 E4 00 00 00 01
  can0  164   [8]  04 10 00 10 B5 00 00 25
  can0  188   [6]  00 00 00 01 00 15
  can0  0E5   [4]  00 00 00 05
  can0  136   [8]  00 00 00 06 00 6B 00 07
  can0  13A   [8]  00 00 00 00 00 00 00 0A
  can0  13F   [8]  00 41 00 41 00 00 00 0B
  can0  17C   [8]  00 33 02 E3 00 27 00 02
  can0  182   [8]  00 00 02 E4 00 00 00 09
  can0  1DC   [4]  02 02 E3 09
  can0  320   [8]  00 00 00 00 00 00 00 03
  can0  324   [8]  6F 36 15 54 00 00 00 02
  can0  328   [8]  00 00 00 00 00 80 00 30
  can0  3C3   [8]  00 00 00 00 00 00 00 24
  can0  3C7   [8]  00 00 00 00 00 00 00 20
  can0  3D7   [8]  B0 00 00 00 00 00 00 24
  can0  039   [3]  00 00 1B
  can0  1A4   [8]  00 00 00 00 00 00 00 09
  can0  1AA   [8]  7F FF 00 00 00 00 66 03
  can0  1B0   [7]  80 80 FF FB 00 00 04
  can0  1D0   [8]  00 00 00 00 00 00 00 0A
  can0  158   [8]  00 00 02 D1 00 00 00 37
  can0  097   [8]  7F 80 07 E4 00 00 00 10
  can0  164   [8]  04 10 00 10 B5 00 00 34
  can0  188   [6]  00 00 00 01 00 24
  can0  309   [8]  00 00 00 00 00 00 00 48
  can0  1A6   [8]  04 00 00 10 B5 00 00 02
  can0  367   [8]  F8 87 1E D2 37 7E FF 07
  can0  374   [7]  2B 00 00 00 00 00 0D
  can0  0E5   [4]  00 00 00 14
  can0  136   [8]  00 00 00 06 00 6B 00 16
  can0  13A   [8]  00 00 00 00 00 00 00 19
  can0  13F   [8]  00 41 00 41 FF F6 00 17
  can0  17C   [8]  00 33 02 E2 00 27 00 12
  can0  182   [8]  00 00 02 E3 00 00 00 19
  can0  158   [8]  00 00 02 D1 00 00 00 0A
  can0  097   [8]  7F 80 07 E4 00 00 00 2F
  can0  164   [8]  04 10 00 10 B5 00 00 07
  can0  188   [6]  00 00 00 01 00 33
  can0  0E5   [4]  00 00 00 23
  can0  136   [8]  00 00 00 06 00 6C 00 24
  can0  13A   [8]  00 00 00 00 00 00 00 28
  can0  13F   [8]  00 41 00 40 00 00 00 2A
  can0  17C   [8]  00 33 02 E4 00 27 00 2F
  can0  182   [8]  00 00 02 E3 00 00 00 28
  can0  1DC   [4]  02 02 E4 17
  can0  333   [7]  00 00 00 00 00 00 0F
  can0  1A4   [8]  00 00 00 00 00 00 00 18
  can0  1AA   [8]  7F FF 00 00 00 00 66 12
  can0  1B0   [7]  80 80 FF FB 00 00 13
  can0  1D0   [8]  00 00 00 00 00 00 00 0A
  can0  158   [8]  00 00 02 D0 00 00 00 1A
  can0  097   [8]  7F 80 07 E4 00 00 00 3E
  can0  164   [8]  04 10 00 10 B5 00 00 16
  can0  188   [6]  00 00 00 01 00 06
  can0  294   [8]  00 00 00 03 A9 AE 00 1A
  can0  1A6   [8]  04 00 00 10 B5 00 00 11
  can0  0E5   [4]  00 00 00 32
  can0  136   [8]  00 00 00 06 00 6C 00 33
  can0  13A   [8]  00 00 00 00 00 00 00 37
  can0  13F   [8]  00 42 00 41 00 1E 00 38
  can0  17C   [8]  00 33 02 E6 00 27 00 3C
  can0  182   [8]  00 00 02 E6 00 00 00 34
  can0  39B   [2]  00 01
  can0  255   [8]  00 00 00 00 55 55 31 25
  can0  158   [8]  00 00 02 D0 00 00 00 29
  can0  097   [8]  7F 80 07 E4 00 00 00 01
  can0  188   [6]  00 00 00 01 00 15
  can0  164   [8]  04 10 00 10 B5 00 00 25
  can0  0E5   [4]  00 00 00 05
  can0  136   [8]  00 00 00 06 00 6C 00 06
  can0  13A   [8]  00 00 00 00 00 00 00 0A
  can0  13F   [8]  00 42 00 41 00 00 00 0A
  can0  17C   [8]  00 33 02 E7 00 28 00 0D
  can0  182   [8]  00 00 02 E6 00 00 00 07
  can0  1DC   [4]  02 02 E7 23
  can0  039   [3]  00 00 2A
  can0  1A4   [8]  00 00 00 00 00 00 00 27
  can0  1AA   [8]  7F FF 00 00 00 00 67 20
  can0  1B0   [7]  80 80 FF FB 00 00 22
  can0  1D0   [8]  00 00 00 00 00 00 00 0A
  can0  158   [8]  00 00 02 D0 00 00 00 38
  can0  097   [8]  7F C0 07 E4 00 00 00 1C
  can0  188   [6]  00 00 00 01 00 24
  can0  164   [8]  04 10 00 10 B5 00 00 34
  can0  1A6   [8]  04 00 00 10 B5 00 00 20
  can0  0E5   [4]  00 00 00 14
  can0  136   [8]  00 00 00 06 00 6B 00 16
  can0  13A   [8]  00 00 00 00 00 00 00 19
  can0  13F   [8]  00 42 00 41 00 00 00 19
  can0  17C   [8]  00 33 02 E5 00 27 00 1F
  can0  182   [8]  00 00 02 E6 00 00 00 16
  can0  158   [8]  00 00 02 D1 00 00 00 0A
  can0  097   [8]  7F C0 07 E4 00 00 00 2B
  can0  188   [6]  00 00 00 01 00 33
  can0  164   [8]  04 10 00 10 B5 00 00 07
  can0  0E5   [4]  00 00 00 23
  can0  136   [8]  00 00 00 06 00 6A 00 26
  can0  13A   [8]  00 00 00 00 00 00 00 28
  can0  13F   [8]  00 41 00 41 FF EC 00 21
  can0  17C   [8]  00 33 02 E4 00 27 00 2F
  can0  182   [8]  00 00 02 E4 00 00 00 27
  can0  1DC   [4]  02 02 E4 35
  can0  1A4   [8]  00 00 00 00 00 00 00 36
  can0  1AA   [8]  7F FF 00 00 00 00 67 3F
  can0  1B0   [7]  80 40 FF FB 00 00 35
  can0  1D0   [8]  00 00 00 00 00 00 00 0A
  can0  158   [8]  00 00 02 D1 00 00 00 19
  can0  097   [8]  7F 80 07 E4 00 00 00 3E
  can0  188   [6]  00 00 00 01 00 06
  can0  164   [8]  04 10 00 10 B5 00 00 16
  can0  1A6   [8]  04 00 00 10 B5 00 00 3F
  can0  294   [8]  00 00 00 03 A9 AE 00 29
  can0  0E5   [4]  00 00 00 32
  can0  136   [8]  00 00 00 06 00 6B 00 34
  can0  13A   [8]  00 00 00 00 00 00 00 37
  can0  13F   [8]  00 41 00 41 00 00 00 38
  can0  17C   [8]  00 34 02 E4 00 27 00 3D
  can0  182   [8]  00 00 02 E4 00 00 00 36
  can0  255   [8]  00 00 00 00 55 55 32 24
  can0  3C5   [8]  00 00 00 00 00 00 00 22
  can0  3C6   [8]  00 00 00 00 00 00 00 21
  can0  158   [8]  00 00 02 D1 00 00 00 28
  can0  097   [8]  7F C0 07 E0 00 00 00 01
  can0  188   [6]  00 00 00 01 00 15
  can0  164   [8]  04 10 00 10 B5 00 00 25
  can0  0E5   [4]  00 00 00 05
  can0  136   [8]  00 00 00 06 00 6C 00 06
  can0  13A   [8]  00 00 00 00 00 00 00 0A
  can0  13F   [8]  00 41 00 41 00 00 00 0B
  can0  17C   [8]  00 34 02 E5 00 27 00 0F
  can0  182   [8]  00 00 02 E4 00 00 00 09
  can0  1DC   [4]  02 02 E5 07
  can0  039   [3]  00 00 39
  can0  1A4   [8]  00 00 00 00 00 00 00 09
  can0  1AA   [8]  7F FF 00 00 00 00 66 03
  can0  1B0   [7]  80 40 FF FB 00 00 08
  can0  1D0   [8]  00 00 00 00 00 00 00 0A
  can0  158   [8]  00 00 02 D1 00 00 00 37
  can0  097   [8]  7F C0 07 E4 00 00 00 1C
  can0  188   [6]  00 00 00 01 00 24
  can0  164   [8]  04 10 00 10 B5 00 00 34
  can0  1A6   [8]  04 00 00 10 B5 00 00 02
  can0  0E5   [4]  00 00 00 14
  can0  136   [8]  00 00 00 06 00 6D 00 14
  can0  13A   [8]  00 00 00 00 00 00 00 19
  can0  13F   [8]  00 42 00 41 00 14 00 14
  can0  17C   [8]  00 34 02 E6 00 27 00 1D
  can0  182   [8]  00 00 02 E6 00 00 00 16
  can0  305   [7]  C0 94 00 00 00 00 25
  can0  158   [8]  00 00 02 D1 00 00 00 0A
  can0  097   [8]  7F C0 07 E4 00 00 00 2B
  can0  188   [6]  00 00 00 01 00 33
  can0  164   [8]  04 10 00 10 B5 00 00 07
  can0  0E5   [4]  00 00 00 23
  can0  136   [8]  00 00 00 06 00 6D 00 23
  can0  13A   [8]  00 00 00 00 00 00 00 28
  can0  13F   [8]  00 42 00 41 00 00 00 28
  can0  17C   [8]  00 34 02 E7 00 28 00 2A
  can0  182   [8]  00 00 02 E6 00 00 00 25
  can0  1DC   [4]  02 02 E7 14
  can0  320   [8]  00 00 00 00 00 00 00 12
  can0  324   [8]  6F 36 15 55 00 00 00 10
  can0  328   [8]  00 00 00 00 00 80 00 03
  can0  1A4   [8]  00 00 00 00 00 00 00 18
  can0  1AA   [8]  7F FF 00 00 00 00 66 12
  can0  1B0   [7]  80 40 FF FB 00 00 17
  can0  1D0   [8]  00 00 00 00 00 00 00 0A
  can0  158   [8]  00 00 02 D1 00 00 00 19
  can0  097   [8]  7F C0 07 E4 00 00 00 3A
  can0  188   [6]  00 00 00 01 00 06
  can0  164   [8]  04 10 00 10 B5 00 00 16
  can0  1A6   [8]  04 00 00 10 B5 00 00 11
  can0  294   [8]  00 00 00 03 A9 AE 00 38
  can0  309   [8]  00 00 00 00 00 00 00 57
  can0  367   [8]  F2 87 1E D2 37 7E FF 1C
  can0  374   [7]  2B 00 00 00 00 00 1C
  can0  0E5   [4]  00 00 00 32
  can0  136   [8]  00 00 00 06 00 6B 00 34
  can0  13A   [8]  00 00 00 00 00 00 00 37
  can0  13F   [8]  00 42 00 41 00 0A 00 3D
  can0  17C   [8]  00 34 02 E7 00 27 00 3A
  can0  182   [8]  00 00 02 E7 00 00 00 33
  can0  405   [8]  00 00 24 00 00 00 80 10
  can0  428   [7]  01 05 00 00 25 31 18
  can0  440   [8]  3A 34 01 A2 1C 70 02 18
  can0  255   [8]  00 00 00 00 55 55 33 23
  can0  158   [8]  00 00 02 D1 00 00 00 28
  can0  097   [8]  7F C0 07 E4 00 00 00 0D
  can0  188   [6]  00 00 00 01 00 15
  can0  164   [8]  04 10 00 10 B5 00 00 25
  can0  0E5   [4]  00 00 00 05
  can0  136   [8]  00 00 00 06 00 6A 00 08
  can0  13A   [8]  00 00 00 00 00 00 00 0A
  can0  13F   [8]  00 42 00 41 00 00 00 0A
  can0  17C   [8]  00 34 02 E7 00 28 00 0C
  can0  182   [8]  00 00 02 E7 00 00 00 06
  can0  1DC   [4]  02 02 E7 23
  can0  333   [7]  00 00 00 00 00 00 1E
  can0  039   [3]  00 00 0C
  can0  1A4   [8]  00 00 00 00 00 00 00 27
  can0  1AA   [8]  7F FF 00 00 00 00 67 20
  can0  1B0   [7]  80 40 FF FB 00 00 26
  can0  1D0   [8]  00 00 00 00 00 00 00 0A
  can0  158   [8]  00 00 02 D1 00 00 00 37
  can0  097   [8]  7F C0 07 E4 00 00 00 1C
  can0  188   [6]  00 00 00 01 00 24
  can0  164   [8]  04 10 00 10 B5 00 00 34
  can0  1A6   [8]  04 00 00 10 B5 00 00 20
  can0  0E5   [4]  00 00 00 14
  can0  136   [8]  00 00 00 06 00 6B 00 16
  can0  13A   [8]  00 00 00 00 00 00 00 19
  can0  13F   [8]  00 42 00 41 00 00 00 19
  can0  17C   [8]  00 34 02 E9 00 27 00 1A
  can0  182   [8]  00 00 02 E7 00 00 00 15
  can0  39B   [2]  00 10
  can0  158   [8]  00 00 02 D2 00 00 00 09
  can0  097   [8]  7F C0 07 E0 00 00 00 2F
  can0  188   [6]  00 00 00 01 00 33
  can0  164   [8]  04 10 00 10 B5 00 00 07
  can0  0E5   [4]  00 00 00 23
  can0  136   [8]  00 00 00 06 00 6C FF 26
  can0  13A   [8]  00 00 00 00 00 00 00 28
  can0  13F   [8]  00 42 00 42 00 14 00 22
  can0  17C   [8]  00 34 02 E9 00 27 00 29
  can0  182   [8]  00 00 02 E9 00 00 00 22
  can0  1DC   [4]  02 02 E9 30
  can0  1A4   [8]  00 00 00 00 00 00 00 36
  can0  1AA   [8]  7F FF 00 00 00 00 66 30
  can0  1B0   [7]  80 40 FF FB 00 00 35
  can0  1D0   [8]  00 00 00 00 00 00 00 0A
  can0  158   [8]  00 00 02 D2 00 00 00 18
  can0  097   [8]  7F C0 07 E0 00 00 00 3E
  can0  188   [6]  00 00 00 01 00 06
  can0  164   [8]  04 10 00 10 B5 00 00 16
  can0  1A6   [8]  04 00 00 10 B5 00 00 3F
  can0  294   [8]  00 00 00 03 A9 AE 00 0B
  can0  0E5   [4]  00 00 00 32
  can0  136   [8]  00 00 00 06 00 6C FF 35
  can0  13A   [8]  00 00 00 00 00 00 00 37
  can0  13F   [8]  00 42 00 42 00 00 00 36
  can0  17C   [8]  00 34 02 EA 00 27 00 37
  can0  182   [8]  00 00 02 E9 00 00 00 31
  can0  255   [8]  00 00 00 00 55 55 34 22
  can0  158   [8]  00 00 02 D3 00 00 00 26
  can0  097   [8]  7F C0 07 E0 00 00 00 01
  can0  188   [6]  00 00 00 01 00 15
  can0  164   [8]  04 10 00 10 B5 00 00 25
  can0  0E5   [4]  00 00 00 05
  can0  136   [8]  00 00 00 06 00 6B FF 09
  can0  13A   [8]  00 00 00 00 00 00 00 0A
  can0  13F   [8]  00 42 00 42 00 00 00 09
  can0  17C   [8]  00 34 02 EA 00 27 00 0A
  can0  182   [8]  00 00 02 E9 00 00 00 04
  can0  1DC   [4]  02 02 EA 02
  can0  039   [3]  00 00 1B
  can0  1A4   [8]  00 00 00 00 00 00 00 09
  can0  1AA   [8]  7F FF 00 00 00 00 66 03
  can0  1B0   [7]  80 40 FF FB 00 00 08
  can0  1D0   [8]  00 00 00 00 00 00 00 0A
  can0  158   [8]  00 00 02 D4 00 00 00 34
  can0  097   [8]  7F C0 07 E0 00 00 00 10
  can0  188   [6]  00 00 00 01 00 24
  can0  164   [8]  04 10 00 10 B5 00 00 34
  can0  1A6   [8]  04 00 00 10 B5 00 00 02
  can0  0E5   [4]  00 00 00 14
  can0  136   [8]  00 00 00 06 00 6A FF 19
  can0  13A   [8]  00 00 00 00 00 00 00 19
  can0  13F   [8]  00 43 00 42 00 0A 00 1D
  can0  17C   [8]  00 33 02 EA 00 27 00 1A
  can0  182   [8]  00 00 02 EA 00 00 00 12
  can0  158   [8]  00 00 02 D4 00 00 00 07
  can0  097   [8]  7F C0 07 E4 00 00 00 2B
  can0  188   [6]  00 00 00 01 00 33
  can0  6C4   [1]  11
  can0  164   [8]  04 10 00 10 B5 00 00 07
  can0  0E5   [4]  00 00 00 23
  can0  136   [8]  00 00 00 06 00 6B FF 27
  can0  13A   [8]  00 00 00 00 00 00 00 28
  can0  13F   [8]  00 43 00 42 00 00 00 26
  can0  17C   [8]  00 33 02 EB 00 27 00 28
  can0  182   [8]  00 00 02 EA 00 00 00 21
  can0  1DC   [4]  02 02 EB 10
  can0  1A4   [8]  00 00 00 00 00 00 00 18
  can0  1AA   [8]  7F FF 00 00 00 00 66 12
  can0  1B0   [7]  80 40 FF FB 00 00 17
  can0  1D0   [8]  00 00 00 00 00 00 00 0A
  can0  158   [8]  00 00 02 D5 00 00 00 15
  can0  097   [8]  7F C0 07 E4 00 00 00 3A
  can0  188   [6]  00 00 00 01 00 06
  can0  164   [8]  04 10 00 10 B5 00 00 16
  can0  1A6   [8]  04 00 00 10 B5 00 00 11
  can0  294   [8]  00 00 00 03 A9 AE 00 1A
  can0  0E5   [4]  00 00 00 32
  can0  136   [8]  00 00 00 06 00 6D FE 35
  can0  13A   [8]  00 00 00 00 00 00 00 37
  can0  13F   [8]  00 43 00 42 00 0A 00 3B
  can0  17C   [8]  00 33 02 EB 00 27 00 37
  can0  182   [8]  00 00 02 EB 00 00 00 3F
  can0  305   [7]  C0 94 00 00 00 00 34
  can0  255   [8]  00 00 00 00 55 55 35 21
  can0  158   [8]  00 00 02 D5 00 00 00 24
  can0  097   [8]  7F C0 07 E4 00 00 00 0D
  can0  188   [6]  00 00 00 01 00 15
  can0  164   [8]  04 10 00 10 B5 00 00 25
  can0  0E5   [4]  00 00 00 05
  can0  136   [8]  00 00 00 06 00 6C FE 09
  can0  13A   [8]  00 00 00 00 00 00 00 0A
  can0  13F   [8]  00 43 00 42 00 00 00 08
  can0  17C   [8]  00 33 02 EC 00 28 00 08
  can0  182   [8]  00 00 02 EB 00 00 00 02
  can0  1DC   [4]  02 02 EC 2E
  can0  320   [8]  00 00 00 00 00 00 00 21
  can0  324   [8]  6F 36 15 55 00 00 00 2F
  can0  328   [8]  00 00 00 00 00 80 00 12
  can0  3C3   [8]  00 00 00 00 00 00 00 33
  can0  3C7   [8]  00 00 00 00 00 00 00 3F
  can0  3D7   [8]  B0 00 00 00 00 00 00 7F
  can0  40C   [8]  01 35 46 4E 52 4C 35 22
  can0  441   [8]  09 FF FF FF FF FF FF 20
  can0  454   [8]  63 F4 02 3E 9C 00 00 25
  can0  6C1   [1]  14
  can0  1A4   [8]  00 00 00 00 00 00 00 27
  can0  1AA   [8]  7F FF 00 00 00 00 66 21
  can0  1B0   [7]  80 40 FF FB 00 00 26
  can0  1D0   [8]  00 00 00 00 00 00 00 0A
  can0  039   [3]  00 00 2A
  can0  158   [8]  00 00 02 D5 00 00 00 33
  can0  097   [8]  7F C0 07 E4 00 00 00 1C
  can0  188   [6]  00 00 00 01 00 24
  can0  164   [8]  04 10 00 10 B5 00 00 34
  can0  1A6   [8]  04 00 00 10 B5 00 00 20
  can0  309   [8]  00 00 00 00 00 00 00 66
  can0  367   [8]  ED 87 1E D1 37 7E FF 22
  can0  0E5   [4]  00 00 00 14
  can0  136   [8]  00 00 00 06 00 6B FE 19
  can0  13A   [8]  00 00 00 00 00 00 00 19
  can0  13F   [8]  00 43 00 44 00 00 00 15
  can0  17C   [8]  00 34 02 EB 00 27 00 18
  can0  182   [8]  00 00 02 EB 00 00 00 11
  can0  374   [7]  2B 00 00 00 00 00 2B
  can0  158   [8]  00 00 02 D5 00 00 00 06
  can0  097   [8]  7F C0 07 E4 00 00 00 2B
  can0  188   [6]  00 00 00 01 00 33
  can0  164   [8]  04 10 00 10 B5 00 00 07
  can0  0E5   [4]  00 00 00 23
  can0  136   [8]  00 00 00 06 00 6B FE 28
  can0  13A   [8]  00 00 00 00 00 00 00 28
  can0  13F   [8]  00 43 00 44 00 00 00 24
  can0  17C   [8]  00 34 02 EB 00 27 00 27
  can0  182   [8]  00 00 02 EB 00 00 00 20
  can0  1DC   [4]  02 02 EB 3E
  can0  333   [7]  00 00 00 00 00 00 2D
  can0  1A4   [8]  00 00 00 00 00 00 00 36
  can0  1AA   [8]  7F FF 00 00 00 00 66 30
  can0  1B0   [7]  80 40 FF FB 00 00 35
  can0  1D0   [8]  00 00 00 00 00 00 00 0A
  can0  158   [8]  00 00 02 D5 00 00 00 15
  can0  097   [8]  7F C0 07 E4 00 00 00 3A
  can0  188   [6]  00 00 00 01 00 06
  can0  164   [8]  04 10 00 10 B5 00 00 16
  can0  1A6   [8]  04 00 00 10 B5 00 00 3F
  can0  294   [8]  00 00 00 03 A9 AE 00 29
  can0  0E5   [4]  00 00 00 32
  can0  136   [8]  00 00 00 06 00 6B FE 37
  can0  13A   [8]  00 00 00 00 00 00 00 37
  can0  13F   [8]  00 43 00 44 00 00 00 33
  can0  17C   [8]  00 34 02 EA 00 27 00 37
  can0  182   [8]  00 00 02 EB 00 00 00 3F
  can0  39B   [2]  00 2F
  can0  255   [8]  00 00 00 00 55 55 36 20
  can0  158   [8]  00 00 02 D6 00 00 00 23
  can0  097   [8]  7F C0 07 E0 00 00 00 01
  can0  188   [6]  00 00 00 01 00 15
  can0  164   [8]  04 10 00 10 B5 00 00 25
  can0  0E5   [4]  00 00 00 05
  can0  136   [8]  00 00 00 06 00 6C FE 09
  can0  13A   [8]  00 00 00 00 00 00 00 0A
  can0  13F   [8]  00 43 00 44 00 00 00 06
  can0  17C   [8]  00 34 02 EB 00 27 00 09
  can0  182   [8]  00 00 02 EB 00 00 00 02
  can0  1DC   [4]  02 02 EB 01
  can0  039   [3]  00 00 39
  can0  1A4   [8]  00 00 00 00 00 00 00 09
  can0  1AA   [8]  7F FF 00 00 00 00 66 03
  can0  1B0   [7]  80 40 FF FB 00 00 08
  can0  1D0   [8]  00 00 00 00 00 00 00 0A
  can0  158   [8]  00 00 02 D6 00 00 00 32
  can0  097   [8]  7F C0 07 E0 00 00 00 10
  can0  188   [6]  00 00 00 01 00 24
  can0  164   [8]  04 10 00 10 B5 00 00 34
  can0  1A6   [8]  04 00 00 10 B5 00 00 02
  can0  0E5   [4]  00 00 00 14
  can0  136   [8]  00 00 00 06 00 6C FE 18
  can0  13A   [8]  00 00 00 00 00 00 00 19
  can0  13F   [8]  00 43 00 44 00 00 00 15
  can0  17C   [8]  00 34 02 EB 00 27 00 18
  can0  182   [8]  00 00 02 EB 00 00 00 11
  can0  158   [8]  00 00 02 D6 00 00 00 05
  can0  097   [8]  7F C0 07 E4 00 00 00 2B
  can0  188   [6]  00 00 00 01 00 33
  can0  164   [8]  04 10 00 10 B5 00 00 07
  can0  0E5   [4]  00 00 00 23
  can0  136   [8]  00 00 00 06 00 6C FE 27
  can0  13A   [8]  00 00 00 00 00 00 00 28
  can0  13F   [8]  00 43 00 44 00 00 00 24
  can0  17C   [8]  00 34 02 EB 00 27 00 27
  can0  182   [8]  00 00 02 EB 00 00 00 20
  can0  1DC   [4]  02 02 EB 10
  can0  1A4   [8]  00 00 00 00 00 00 00 18
  can0  1AA   [8]  7F FF 00 00 00 00 67 11
  can0  1B0   [7]  80 40 FF FB 00 00 17
  can0  1D0   [8]  00 00 00 00 00 00 00 0A
  can0  158   [8]  00 00 02 D6 00 00 00 14
  can0  097   [8]  7F C0 07 E4 00 00 00 3A
  can0  188   [6]  00 00 00 01 00 06
  can0  164   [8]  04 10 00 10 B5 00 00 16
  can0  1A6   [8]  04 00 00 10 B5 00 00 11
  can0  294   [8]  00 00 00 03 A9 AE 00 38
  can0  0E5   [4]  00 00 00 32
  can0  136   [8]  00 00 00 06 00 6C FF 35
  can0  13A   [8]  00 00 00 00 00 00 00 37
  can0  13F   [8]  00 42 00 43 FF EC 00 3D
  can0  17C   [8]  00 34 02 E9 00 27 00 38
  can0  182   [8]  00 00 02 E9 00 00 00 31
  can0  3C5   [8]  00 00 00 00 00 00 00 31
  can0  3C6   [8]  00 00 00 00 00 00 00 30
  can0  6E5   [1]  2D
  can0  255   [8]  00 00 00 00 55 55 37 1F
  can0  158   [8]  00 00 02 D7 00 00 00 22
  can0  097   [8]  7F C0 07 E4 00 00 00 0D
  can0  188   [6]  00 00 00 01 00 15
  can0  164   [8]  04 10 00 10 B5 00 00 25
  can0  0E5   [4]  00 00 00 05
  can0  136   [8]  00 00 00 06 00 6C FF 08
  can0  13A   [8]  00 00 00 00 00 00 00 0A
  can0  13F   [8]  00 42 00 43 00 00 00 08
  can0  17C   [8]  00 34 02 E8 00 28 00 0B
  can0  182   [8]  00 00 02 E9 00 00 00 04
  can0  1DC   [4]  02 02 E8 22
  can0  1A4   [8]  00 00 00 00 00 00 00 27
  can0  1AA   [8]  7F FF 00 00 00 00 66 21
  can0  1B0   [7]  80 40 FF FB 00 00 26
  can0  1D0   [8]  00 00 00 00 00 00 00 0A
  can0  039   [3]  00 00 0C
  can0  158   [8]  00 00 02 D6 00 00 00 32
  can0  097   [8]  7F C0 07 E4 00 00 00 1C
  can0  188   [6]  00 00 00 01 00 24
  can0  164   [8]  04 10 00 10 B5 00 00 34
  can0  1A6   [8]  04 00 00 10 B5 00 00 20
  can0  0E5   [4]  00 00 00 14
  can0  136   [8]  00 00 00 06 00 6D FF 16
  can0  13A   [8]  00 00 00 00 00 00 00 19
  can0  13F   [8]  00 42 00 43 00 00 00 17
  can0  17C   [8]  00 34 02 EB 00 27 00 18
  can0  182   [8]  00 00 02 E9 00 00 00 13
  can0  305   [7]  C0 94 00 00 00 00 07
  can0  158   [8]  00 00 02 D6 00 00 00 05
  can0  097   [8]  7F C0 07 E0 00 00 00 2F
  can0  188   [6]  00 00 00 01 00 33
  can0  164   [8]  04 10 00 10 B5 00 00 07
  can0  0E5   [4]  00 00 00 23
  can0  136   [8]  00 00 00 06 00 6C FE 27
  can0  13A   [8]  00 00 00 00 00 00 00 28
  can0  13F   [8]  00 43 00 44 00 1E 00 25
  can0  17C   [8]  00 33 02 EC 00 27 00 27
  can0  182   [8]  00 00 02 EC 00 00 00 2F
  can0  1DC   [4]  02 02 EC 3D
  can0  320   [8]  00 00 00 00 00 00 00 30
  can0  324   [8]  6F 36 15 55 00 00 00 3E
  can0  328   [8]  00 00 00 00 00 80 00 21
  can0  1A4   [8]  00 00 00 00 00 00 00 36
  can0  1AA   [8]  7F FF 00 00 00 00 67 3F
  can0  1B0   [7]  80 40 FF FB 00 00 35
  can0  1D0   [8]  00 00 00 00 00 00 00 0A
  can0  158   [8]  00 00 02 D6 00 00 00 14
  can0  097   [8]  7F C0 07 E4 00 00 00 3A
  can0  188   [6]  00 00 00 01 00 06
  can0  164   [8]  04 10 00 10 B5 00 00 16
  can0  1A6   [8]  04 00 00 10 B5 00 00 3F
  can0  0E5   [4]  00 00 00 32
  can0  136   [8]  00 00 00 06 00 6A FE 38
  can0  13A   [8]  00 00 00 00 00 00 00 37
  can0  13F   [8]  00 43 00 44 00 00 00 33
  can0  17C   [8]  00 33 02 ED 00 27 00 35
  can0  182   [8]  00 00 02 EC 00 00 00 3E
  can0  294   [8]  00 00 00 03 A9 AE 00 0B
  can0  309   [8]  00 00 00 00 00 00 00 75
  can0  367   [8]  EB 87 1E D1 37 7E FF 33
  can0  374   [7]  2B 00 00 00 00 00 3A
  can0  255   [8]  00 00 00 00 55 55 38 1E
  can0  158   [8]  00 00 02 D7 00 00 00 22
  can0  097   [8]  7F C0 07 E4 00 00 00 0D
  can0  188   [6]  00 00 00 01 00 15
  can0  164   [8]  04 10 00 10 B5 00 00 25
  can0  0E5   [4]  00 00 00 05
  can0  136   [8]  00 00 00 06 00 6A FE 0B
  can0  13A   [8]  00 00 00 00 00 00 00 0A
  can0  13F   [8]  00 43 00 44 00 00 00 06
  can0  17C   [8]  00 33 02 EE 00 27 00 07
  can0  182   [8]  00 00 02 EC 00 00 00 01
  can0  1DC   [4]  02 02 EE 0E
  can0  333   [7]  00 00 00 00 00 00 3C
  can0  1A4   [8]  00 00 00 00 00 00 00 09
  can0  1AA   [8]  7F FF 00 00 00 00 67 02
  can0  1B0   [7]  80 40 FF FB 00 00 08
  can0  1D0   [8]  00 00 00 00 00 00 00 0A
  can0  039   [3]  00 00 1B
  can0  158   [8]  00 00 02 D7 00 00 00 31
  can0  097   [8]  7F C0 07 E0 00 00 00 10
  can0  188   [6]  00 00 00 01 00 24
  can0  164   [8]  04 10 00 10 B5 00 00 34
  can0  1A6   [8]  04 00 00 10 B5 00 00 02
  can0  0E5   [4]  00 00 00 14
  can0  136   [8]  00 00 00 06 00 6B FD 1A
  can0  13A   [8]  00 00 00 00 00 00 00 19
  can0  13F   [8]  00 44 00 44 00 14 00 1F
  can0  17C   [8]  00 33 02 EF 00 27 00 15
  can0  182   [8]  00 00 02 EE 00 00 00 1E
  can0  39B   [2]  00 3E
  can0  158   [8]  00 00 02 D7 00 00 00 04
  can0  097   [8]  7F C0 07 E4 00 00 00 2B
  can0  188   [6]  00 00 00 01 00 33
  can0  164   [8]  04 10 00 10 B5 00 00 07
  can0  0E5   [4]  00 00 00 23
  can0  136   [8]  00 00 00 06 00 6C FD 28
  can0  13A   [8]  00 00 00 00 00 00 00 28
  can0  13F   [8]  00 44 00 44 00 00 00 23
  can0  17C   [8]  00 33 02 EF 00 27 00 24
  can0  182   [8]  00 00 02 EE 00 00 00 2D
  can0  1DC   [4]  02 02 EF 1C
  can0  1A4   [8]  00 00 00 00 00 00 00 18
  can0  1AA   [8]  7F FF 00 00 00 00 66 12
  can0  1B0   [7]  80 40 FF FB 00 00 17
  can0  1D0   [8]  00 00 00 00 00 00 00 0A
  can0  158   [8]  00 00 02 D8 00 00 00 12
  can0  097   [8]  7F C0 07 E4 00 00 00 3A
  can0  188   [6]  00 00 00 01 00 06
  can0  164   [8]  04 10 00 10 B5 00 00 16
  can0  0E5   [4]  00 00 00 32
  can0  136   [8]  00 00 00 06 00 6C FD 37
  can0  13A   [8]  00 00 00 00 00 00 00 37
  can0  13F   [8]  00 44 00 44 00 0A 00 38
  can0  17C   [8]  00 33 02 EF 00 27 00 33
  can0  182   [8]  00 00 02 EF 00 00 00 3B
  can0  294   [8]  00 00 00 03 A9 AE 00 1A
  can0  1A6   [8]  04 00 00 10 B5 00 00 11
  can0  255   [8]  00 00 00 00 55 55 39 1D
  can0  158   [8]  00 00 02 D8 00 00 00 21
  can0  097   [8]  7F C0 07 E4 00 00 00 0D
  can0  188   [6]  00 00 00 01 00 15
  can0  164   [8]  04 10 00 10 B5 00 00 25
  can0  0E5   [4]  00 00 00 05
  can0  136   [8]  00 00 00 06 00 6B FD 0B
  can0  13A   [8]  00 00 00 00 00 00 00 0A
  can0  13F   [8]  00 44 00 44 00 00 00 05
  can0  17C   [8]  00 33 02 EF 00 28 00 05
  can0  182   [8]  00 00 02 EF 00 00 00 0E
  can0  1DC   [4]  02 02 EF 2B
  can0  1A4   [8]  00 00 00 00 00 00 00 27
  can0  1AA   [8]  7F FF 00 00 00 00 67 20
  can0  1B0   [7]  80 40 FF FB 00 00 26
  can0  1D0   [8]  00 00 00 00 00 00 00 0A
  can0  039   [3]  00 00 2A
  can0  158   [8]  00 00 02 D8 00 00 00 30
  can0  097   [8]  7F C0 07 E4 00 00 00 1C
  can0  188   [6]  00 00 00 01 00 24
  can0  164   [8]  04 10 00 10 B5 00 00 34
  can0  0E5   [4]  00 00 00 14
  can0  136   [8]  00 00 00 06 00 6B FD 1A
  can0  13A   [8]  00 00 00 00 00 00 00 19
  can0  13F   [8]  00 44 00 44 00 00 00 14
  can0  17C   [8]  00 33 02 EE 00 27 00 16
  can0  182   [8]  00 00 02 EF 00 00 00 1D
  can0  1A6   [8]  04 00 00 10 B5 00 00 20
  can0  158   [8]  00 00 02 D9 00 00 00 02
  can0  097   [8]  7F C0 07 E4 00 00 00 2B
  can0  188   [6]  00 00 00 01 00 33
  can0  164   [8]  04 10 00 10 B5 00 00 07
  can0  0E5   [4]  00 00 00 23
  can0  136   [8]  00 00 00 06 00 6B FD 29
  can0  13A   [8]  00 00 00 00 00 00 00 28
  can0  13F   [8]  00 44 00 44 FF F6 00 20
  can0  17C   [8]  00 33 02 EE 00 27 00 25
  can0  182   [8]  00 00 02 EE 00 00 00 2D
  can0  1DC   [4]  02 02 EE 3B
  can0  1A4   [8]  00 00 00 00 00 00 00 36
  can0  1AA   [8]  7F FF 00 00 00 00 67 3F
  can0  1B0   [7]  80 40 FF FB 00 00 35
  can0  1D0   [8]  00 00 00 00 00 00 00 0A
  can0  158   [8]  00 00 02 D9 00 00 00 11
  can0  097   [8]  7F C0 07 E4 00 00 00 3A
  can0  188   [6]  00 00 00 01 00 06
  can0  0E5   [4]  00 00 00 32
  can0  136   [8]  00 00 00 06 00 6C FD 37
  can0  13A   [8]  00 00 00 00 00 00 00 37
  can0  13F   [8]  00 44 00 44 00 00 00 32
  can0  164   [8]  04 10 00 10 B5 00 00 16
  can0  17C   [8]  00 33 02 EE 00 27 00 34
  can0  182   [8]  00 00 02 EE 00 00 00 3C
  can0  294   [8]  00 00 00 03 A9 AE 00 29
  can0  1A6   [8]  04 00 00 10 B5 00 00 3F
  can0  255   [8]  00 00 00 00 55 55 3A 1C
  can0  305   [7]  C0 94 00 00 00 00 16
  can0  097   [8]  7F C0 07 E0 00 00 00 01
  can0  158   [8]  00 00 02 D9 00 00 00 20
  can0  188   [6]  00 00 00 01 00 15
  can0  0E5   [4]  00 00 00 05
  can0  136   [8]  00 00 00 06 00 6C FD 0A
  can0  13A   [8]  00 00 00 00 00 00 00 0A
  can0  13F   [8]  00 44 00 44 00 00 00 05
  can0  164   [8]  04 10 00 10 B5 00 00 25
  can0  17C   [8]  00 34 02 EF 00 27 00 05
  can0  182   [8]  00 00 02 EE 00 00 00 0F
  can0  1DC   [4]  02 02 EF 0D
  can0  320   [8]  00 00 00 00 00 00 00 03
  can0  324   [8]  6F 36 15 56 00 00 00 00
  can0  328   [8]  00 00 00 00 00 80 00 30
  can0  3C3   [8]  00 00 00 00 00 00 00 06
  can0  3C7   [8]  00 00 00 00 00 00 00 02
  can0  3D7   [8]  B0 00 00 00 00 00 00 06
  can0  1A4   [8]  00 00 00 00 00 00 00 09
  can0  1AA   [8]  7F FF 00 00 00 00 67 02
  can0  1B0   [7]  80 40 FF FB 00 00 08
  can0  1D0   [8]  00 00 00 00 00 00 00 0A
  can0  158   [8]  00 00 02 DA 00 00 00 3E
  can0  097   [8]  7F C0 07 E0 00 00 00 10
  can0  188   [6]  00 00 00 01 00 24
  can0  039   [3]  00 00 39
  can0  0E5   [4]  00 00 00 14
  can0  136   [8]  00 00 00 06 00 6B FD 1A
  can0  13A   [8]  00 00 00 00 00 00 00 19
  can0  13F   [8]  00 44 00 44 00 0A 00 1A
  can0  164   [8]  04 10 00 10 B5 00 00 34
  can0  17C   [8]  00 34 02 EF 00 27 00 14
  can0  182   [8]  00 00 02 EF 00 00 00 1D
  can0  309   [8]  00 00 00 00 00 00 00 48
  can0  1A6   [8]  04 00 00 10 B5 00 00 02
  can0  367   [8]  F0 87 1E D1 37 7E FF 00
  can0  374   [7]  2B 00 00 00 00 00 0D
  can0  405   [8]  00 00 24 00 00 00 80 2F
  can0  428   [7]  01 05 00 00 25 31 27
  can0  440   [8]  23 29 21 37 02 DB 00 27
  can0  158   [8]  00 00 02 DA 00 00 00 01
  can0  097   [8]  7F C0 07 E4 00 00 00 2B
  can0  188   [6]  00 00 00 01 00 33
  can0  0E5   [4]  00 00 00 23
  can0  136   [8]  00 00 00 06 00 6C FD 28
  can0  13A   [8]  00 00 00 00 00 00 00 28
  can0  13F   [8]  00 44 00 44 00 00 00 23
  can0  164   [8]  04 10 00 10 B5 00 00 07
  can0  17C   [8]  00 34 02 EF 00 27 00 23
  can0  182   [8]  00 00 02 EF 00 00 00 2C
  can0  1DC   [4]  02 02 EF 1C
  can0  333   [7]  00 00 00 00 00 00 0F
  can0  1A4   [8]  00 00 00 00 00 00 00 18
  can0  1AA   [8]  7F FF 00 00 00 00 67 11
  can0  1B0   [7]  80 40 FF FB 00 00 17
  can0  1D0   [8]  00 00 00 00 00 00 00 0A
  can0  158   [8]  00 00 02 DA 00 00 00 10
  can0  097   [8]  7F C0 07 E4 00 00 00 3A
  can0  188   [6]  00 00 00 01 00 06
  can0  0E5   [4]  00 00 00 32
  can0  136   [8]  00 00 00 06 00 6B FD 38
  can0  13A   [8]  00 00 00 00 00 00 00 37
  can0  13F   [8]  00 44 00 44 00 00 00 32
  can0  164   [8]  04 10 00 10 B6 00 00 15
  can0  17C   [8]  00 34 02 EF 00 27 00 32
  can0  182   [8]  00 00 02 EF 00 00 00 3B
  can0  294   [8]  00 00 00 03 A9 AE 00 38
  can0  1A6   [8]  04 00 00 10 B5 00 00 11
  can0  39B   [2]  00 01
  can0  255   [8]  00 00 00 00 55 55 3B 1B
  can0  158   [8]  00 00 02 DA 00 00 00 2F
  can0  097   [8]  7F C0 07 E4 00 00 00 0D
  can0  188   [6]  00 00 00 01 00 15
  can0  0E5   [4]  00 00 00 05
  can0  136   [8]  00 00 00 06 00 6C FD 0A
  can0  13A   [8]  00 00 00 00 00 00 00 0A
  can0  13F   [8]  00 44 00 44 00 00 00 05
  can0  164   [8]  04 10 00 10 B5 00 00 25
  can0  17C   [8]  00 34 02 EF 00 27 00 05
  can0  182   [8]  00 00 02 EF 00 00 00 0E
  can0  1DC   [4]  02 02 EF 2B
  can0  1A4   [8]  00 00 00 00 00 00 00 27
  can0  1AA   [8]  7F FF 00 00 00 00 66 21
  can0  1B0   [7]  80 40 FF FB 00 00 26
  can0  1D0   [8]  00 00 00 00 00 00 00 0A
  can0  039   [3]  00 00 0C
  can0  097   [8]  7F C0 07 E0 00 00 00 10
  can0  158   [8]  00 00 02 DA 00 00 00 3E
  can0  188   [6]  00 00 00 01 00 24
  can0  0E5   [4]  00 00 00 14
  can0  136   [8]  00 00 00 06 00 6C FD 19
  can0  13A   [8]  00 00 00 00 00 00 00 19
  can0  13F   [8]  00 44 00 44 00 00 00 14
  can0  164   [8]  04 10 00 10 B5 00 00 34
  can0  17C   [8]  00 34 02 EF 00 27 00 14
  can0  182   [8]  00 00 02 EF 00 00 00 1D
  can0  1A6   [8]  04 00 00 10 B5 00 00 20
  can0  158   [8]  00 00 02 DA 00 00 00 01
  can0  097   [8]  7F C0 07 E0 00 00 00 2F
  can0  188   [6]  00 00 00 01 00 33
  can0  0E5   [4]  00 00 00 23
  can0  136   [8]  00 00 00 06 00 6A FD 2A
  can0  13A   [8]  00 00 00 00 00 00 00 28
  can0  13F   [8]  00 44 00 44 00 00 00 23
  can0  164   [8]  04 10 00 10 B5 00 00 07
  can0  17C   [8]  00 33 02 EF 00 27 00 24
  can0  182   [8]  00 00 02 EF 00 00 00 2C
  can0  1DC   [4]  02 02 EF 3A
  can0  1A4   [8]  00 00 00 00 00 00 00 36
  can0  1AA   [8]  7F FF 00 00 00 00 66 30
  can0  1B0   [7]  80 40 FF FB 00 00 35
  can0  1D0   [8]  00 00 00 00 00 00 00 0A
  can0  158   [8]  00 00 02 DA 00 00 00 10
  can0  097   [8]  7F C0 07 E0 00 00 00 3E
  can0  188   [6]  00 00 00 01 00 06
  can0  0E5   [4]  00 00 00 32
  can0  136   [8]  00 00 00 06 00 6A FD 39
  can0  13A   [8]  00 00 00 00 00 00 00 37
  can0  13F   [8]  00 44 00 44 00 00 00 32
  can0  164   [8]  04 10 00 10 B5 00 00 16
  can0  17C   [8]  00 33 02 EE 00 27 00 34
  can0  182   [8]  00 00 02 EF 00 00 00 3B
  can0  294   [8]  00 00 00 03 A9 AE 00 0B
  can0  1A6   [8]  04 00 00 10 B5 00 00 3F
  can0  255   [8]  00 00 00 00 55 55 3C 1A
  can0  158   [8]  00 00 02 DA 00 00 00 2F
  can0  097   [8]  7F C0 07 E0 00 00 00 01
  can0  188   [6]  00 00 00 01 00 15
  can0  3C5   [8]  00 00 00 00 00 00 00 04
  can0  3C6   [8]  00 00 00 00 00 00 00 03
  can0  6C4   [1]  20
  can0  0E5   [4]  00 00 00 05
  can0  136   [8]  00 00 00 06 00 6C FD 0A
  can0  13A   [8]  00 00 00 00 00 00 00 0A
  can0  13F   [8]  00 44 00 44 00 00 00 05
  can0  164   [8]  04 10 00 10 B5 00 00 25
  can0  17C   [8]  00 33 02 EC 00 27 00 09
  can0  182   [8]  00 00 02 EF 00 00 00 0E
  can0  1DC   [4]  02 02 EC 00
  can0  1A4   [8]  00 00 00 00 00 00 00 09
  can0  1AA   [8]  7F FF 00 00 00 00 67 02
  can0  1B0   [7]  80 40 FF FB 00 00 08
  can0  1D0   [8]  00 00 00 00 00 00 00 0A
  can0  158   [8]  00 00 02 DA 00 00 00 3E
  can0  097   [8]  7F C0 07 E0 00 00 00 10
  can0  188   [6]  00 00 00 01 00 24
  can0  039   [3]  00 00 1B
  can0  555   [5]  00 00 00 04 05
  can0  0E5   [4]  00 00 00 14
  can0  136   [8]  00 00 00 06 00 6D FF 16
  can0  13A   [8]  00 00 00 00 00 00 00 19
  can0  13F   [8]  00 43 00 43 FF CE 00 1E
  can0  164   [8]  04 10 00 0F B5 00 00 36
  can0  17C   [8]  00 33 02 E8 00 27 00 1C
  can0  182   [8]  00 00 02 EA 00 00 00 12
  can0  1A6   [8]  04 00 00 0F B5 00 00 04
  can0  158   [8]  00 00 02 DA 00 00 00 01
  can0  097   [8]  7F C0 07 E0 00 00 00 2F
  can0  188   [6]  00 00 00 01 00 33
  can0  305   [7]  C0 94 00 00 00 00 25
  can0  0E5   [4]  00 00 00 23
  can0  136   [8]  00 00 00 06 00 6E FF 24
  can0  13A   [8]  00 00 00 00 00 00 00 28
  can0  13F   [8]  00 43 00 43 00 00 00 25
  can0  164   [8]  04 10 00 0F B5 00 00 09
  can0  17C   [8]  00 33 02 E9 00 27 00 2A
  can0  182   [8]  00 00 02 EA 00 00 00 21
  can0  1DC   [4]  02 02 E9 12
  can0  320   [8]  00 00 00 00 00 00 00 12
  can0  324   [8]  6F 36 15 56 00 00 00 1F
  can0  328   [8]  00 00 00 00 00 80 00 03
  can0  40C   [8]  02 48 34 34 45 42 35 32
  can0  441   [8]  09 FF FF FF FF FF FF 3F
  can0  454   [8]  63 F4 02 3E 9C 00 00 34
  can0  6C1   [1]  23
  can0  1A4   [8]  00 00 00 00 00 00 00 18
  can0  1AA   [8]  7F FF 00 00 00 00 67 11
  can0  1B0   [7]  80 40 FF FB 00 00 17
  can0  1D0   [8]  00 00 00 00 00 00 00 0A
  can0  158   [8]  00 00 02 DA 00 00 00 10
  can0  097   [8]  7F C0 07 E4 00 00 00 3A
  can0  188   [6]  00 00 00 01 00 06
  can0  0E5   [4]  00 00 00 32
  can0  136   [8]  00 00 00 06 00 6C FF 35
  can0  13A   [8]  00 00 00 00 00 00 00 37
  can0  13F   [8]  00 42 00 42 FF F6 00 33
  can0  164   [8]  04 10 00 0F B5 00 00 18
  can0  17C   [8]  00 33 02 E9 00 27 00 39
  can0  182   [8]  00 00 02 E9 00 00 00 31
  can0  294   [8]  00 00 00 03 A9 AE 00 1A
  can0  1A6   [8]  04 00 00 0F B5 00 00 13
  can0  309   [8]  00 00 00 00 00 00 00 57
  can0  367   [8]  F6 87 1E D2 37 7E FF 18
  can0  374   [7]  2B 00 00 00 00 00 1C
  can0  255   [8]  00 00 00 00 55 55 3D 19
  can0  158   [8]  00 00 02 D9 00 00 00 20
  can0  097   [8]  7F C0 07 E0 00 00 00 01
  can0  188   [6]  00 00 00 01 00 15
  can0  0E5   [4]  00 00 00 05
  can0  136   [8]  00 00 00 06 00 6C FF 08
  can0  13A   [8]  00 00 00 00 00 00 00 0A
  can0  13F   [8]  00 42 00 42 00 00 00 09
  can0  164   [8]  04 10 00 0F B5 00 00 27
  can0  17C   [8]  00 34 02 E9 00 27 00 0B
  can0  182   [8]  00 00 02 E9 00 00 00 04
  can0  1DC   [4]  02 02 E9 21
  can0  333   [7]  00 00 00 00 00 00 1E
  can0  1A4   [8]  00 00 00 00 00 00 00 27
  can0  1AA   [8]  7F FF 00 00 00 00 66 21
  can0  1B0   [7]  80 40 FF FB 00 00 26
  can0  1D0   [8]  00 00 00 00 00 00 00 0A
  can0  158   [8]  00 00 02 D9 00 00 00 3F
  can0  097   [8]  7F C0 07 E0 00 00 00 10
  can0  188   [6]  00 00 00 01 00 24
  can0  039   [3]  00 00 2A
  can0  0E5   [4]  00 00 00 14
  can0  136   [8]  00 00 00 06 00 6C FF 17
  can0  13A   [8]  00 00 00 00 00 00 00 19
  can0  13F   [8]  00 42 00 42 00 00 00 18
  can0  164   [8]  04 10 00 0F B5 00 00 36
  can0  17C   [8]  00 34 02 E7 00 27 00 1C
  can0  182   [8]  00 00 02 E9 00 00 00 13
  can0  1A6   [8]  04 00 00 0F B5 00 00 22
  can0  39B   [2]  00 10
  can0  158   [8]  00 00 02 D8 00 00 00 03
  can0  097   [8]  7F C0 07 E0 00 00 00 2F
  can0  188   [6]  00 00 00 01 00 33
  can0  0E5   [4]  00 00 00 23
  can0  136   [8]  00 00 00 06 00 6C 00 24
  can0  13A   [8]  00 00 00 00 00 00 00 28
  can0  13F   [8]  00 41 00 41 FF D8 00 26
  can0  164   [8]  04 10 00 0F B5 00 00 09
  can0  17C   [8]  00 34 02 E5 00 27 00 2D
  can0  182   [8]  00 00 02 E5 00 00 00 26
  can0  1DC   [4]  02 02 E5 34
  can0  1A4   [8]  00 00 00 00 00 00 00 36
  can0  1AA   [8]  7F FF 00 00 00 00 66 30
  can0  1B0   [7]  80 40 FF FB 00 00 35
  can0  1D0   [8]  00 00 00 00 00 00 00 0A
  can0  158   [8]  00 00 02 D7 00 00 00 13
  can0  097   [8]  7F C0 07 E0 00 00 00 3E
  can0  188   [6]  00 00 00 01 00 06
  can0  0E5   [4]  00 00 00 32
  can0  136   [8]  00 00 00 06 00 6D 00 32
  can0  13A   [8]  00 00 00 00 00 00 00 37
  can0  13F   [8]  00 41 00 41 00 00 00 38
  can0  164   [8]  04 10 00 0F B5 00 00 18
  can0  17C   [8]  00 34 02 E4 00 27 00 3D
  can0  182   [8]  00 00 02 E5 00 00 00 35
  can0  294   [8]  00 00 00 03 A9 AE 00 29
  can0  1A6   [8]  04 00 00 0F B5 00 00 31
  can0  255   [8]  00 00 00 00 55 55 3E 18
  can0  158   [8]  00 00 02 D6 00 00 00 23
  can0  097   [8]  7F C0 07 E4 00 00 00 0D
  can0  188   [6]  00 00 00 01 00 15
  can0  0E5   [4]  00 00 00 05
  can0  136   [8]  00 00 00 06 00 6D 00 05
  can0  13A   [8]  00 00 00 00 00 00 00 0A
  can0  13F   [8]  00 41 00 41 00 00 00 0B
  can0  164   [8]  04 10 00 0F B5 00 00 27
  can0  17C   [8]  00 34 02 E4 00 27 00 00
  can0  182   [8]  00 00 02 E5 00 00 00 08
  can0  1DC   [4]  02 02 E4 08
  can0  1A4   [8]  00 00 00 00 00 00 00 09
  can0  1AA   [8]  7F FF 00 00 00 00 66 03
  can0  1B0   [7]  80 40 FF FB 00 00 08
  can0  1D0   [8]  00 00 00 00 00 00 00 0A
  can0  158   [8]  00 00 02 D5 00 00 00 33
  can0  097   [8]  7F C0 07 E0 00 00 00 10
  can0  188   [6]  00 00 00 01 00 24
  can0  039   [3]  00 00 39
  can0  0E5   [4]  00 00 00 14
  can0  136   [8]  00 00 00 06 00 6D 00 14
  can0  13A   [8]  00 00 00 00 00 00 00 19
  can0  13F   [8]  00 41 00 41 FF F6 00 17
  can0  164   [8]  04 10 00 0F B5 00 00 36
  can0  17C   [8]  00 34 02 E4 00 27 00 1F
  can0  182   [8]  00 00 02 E4 00 00 00 18
  can0  1A6   [8]  04 00 00 0F B5 00 00 04
  can0  6E5   [1]  3C
  can0  158   [8]  00 00 02 D5 00 00 00 06
  can0  097   [8]  7F C0 07 E0 00 00 00 2F
  can0  188   [6]  00 00 00 01 00 33
  can0  0E5   [4]  00 00 00 23
  can0  136   [8]  00 00 00 06 00 6D 00 23
  can0  13A   [8]  00 00 00 00 00 00 00 28
  can0  13F   [8]  00 41 00 41 00 00 00 29
  can0  164   [8]  04 10 00 0F B6 00 00 08
  can0  17C   [8]  00 34 02 E4 00 27 00 2E
  can0  182   [8]  00 00 02 E4 00 00 00 27
  can0  1DC   [4]  02 02 E4 17
  can0  1A4   [8]  00 00 00 00 00 00 00 18
  can0  1AA   [8]  7F FF 00 00 00 00 67 11
  can0  1B0   [7]  80 40 FF FB 00 00 17
  can0  1D0   [8]  00 00 00 00 00 00 00 0A
  can0  158   [8]  00 00 02 D4 00 00 00 16
  can0  097   [8]  7F C0 07 E4 00 00 00 3A
  can0  188   [6]  00 00 00 01 00 06
  can0  0E5   [4]  00 00 00 32
  can0  136   [8]  00 00 00 06 00 6D 00 32
  can0  13A   [8]  00 00 00 00 00 00 00 37
  can0  13F   [8]  00 41 00 41 00 00 00 38
  can0  164   [8]  04 10 00 10 B5 00 00 16
  can0  17C   [8]  00 34 02 E4 00 27 00 3D
  can0  182   [8]  00 00 02 E4 00 00 00 36
  can0  294   [8]  00 00 00 03 A9 AE 00 38
  can0  1A6   [8]  04 00 00 10 B5 00 00 11
  can0  255   [8]  00 00 00 00 55 55 3F 17
  can0  158   [8]  00 00 02 D4 00 00 00 25
  can0  097   [8]  7F C0 07 E4 00 00 00 0D
  can0  188   [6]  00 00 00 01 00 15
  can0  0E5   [4]  00 00 00 05
  can0  136   [8]  00 00 00 06 00 6C 00 06
  can0  13A   [8]  00 00 00 00 00 00 00 0A
  can0  13F   [8]  00 41 00 41 00 00 00 0B
  can0  164   [8]  04 10 00 10 B5 00 00 25
  can0  17C   [8]  00 34 02 E4 00 27 00 00
  can0  182   [8]  00 00 02 E4 00 00 00 09
  can0  1DC   [4]  02 02 E4 26
  can0  305   [7]  C0 94 00 00 00 00 34
  can0  320   [8]  00 00 00 00 00 00 00 21
  can0  324   [8]  6F 36 15 56 00 00 00 2E
  can0  328   [8]  00 00 00 00 00 80 00 12
  can0  3C3   [8]  00 00 00 00 00 00 00 15
  can0  3C7   [8]  00 00 00 00 00 00 00 11
  can0  3D7   [8]  B0 00 00 00 00 00 00 51
  can0  1A4   [8]  00 00 00 00 00 00 00 27
  can0  1AA   [8]  7F FF 00 00 00 00 66 21
  can0  1B0   [7]  80 40 FF FB 00 00 26
  can0  1D0   [8]  00 00 00 00 00 00 00 0A
  can0  158   [8]  00 00 02 D4 00 00 00 34
  can0  097   [8]  7F C0 07 E4 00 00 00 1C
  can0  188   [6]  00 00 00 01 00 24
  can0  039   [3]  00 00 0C
  can0  0E5   [4]  00 00 00 14
  can0  136   [8]  00 00 00 06 00 6B 00 16
  can0  13A   [8]  00 00 00 00 00 00 00 19
  can0  13F   [8]  00 41 00 41 00 00 00 1A
  can0  164   [8]  04 10 00 10 B5 00 00 34
  can0  17C   [8]  00 34 02 E4 00 27 00 1F
  can0  182   [8]  00 00 02 E4 00 00 00 18
  can0  309   [8]  00 00 00 00 00 00 00 66
  can0  1A6   [8]  04 00 00 10 B5 00 00 20
  can0  367   [8]  F9 87 1E D2 37 7E FF 24
  can0  374   [7]  2B 00 00 00 00 00 2B
  can0  158   [8]  00 00 02 D3 00 00 00 08
  can0  097   [8]  7F C0 07 E0 00 00 00 2F
  can0  188   [6]  00 00 00 01 00 33
  can0  0E5   [4]  00 00 00 23
  can0  136   [8]  00 00 00 06 00 6B 00 25
  can0  13A   [8]  00 00 00 00 00 00 00 28
  can0  13F   [8]  00 41 00 41 00 0A 00 2F
  can0  164   [8]  04 10 00 10 B5 00 00 07
  can0  17C   [8]  00 34 02 E5 00 27 00 2D
  can0  182   [8]  00 00 02 E5 00 00 00 26
  can0  1DC   [4]  02 02 E5 34
  can0  333   [7]  00 00 00 00 00 00 2D
  can0  1A4   [8]  00 00 00 00 00 00 00 36
  can0  1AA   [8]  7F FF 00 00 00 00 67 3F
  can0  1B0   [7]  80 40 FF FB 00 00 35
  can0  1D0   [8]  00 00 00 00 00 00 00 0A
  can0  158   [8]  00 00 02 D3 00 00 00 17
  can0  097   [8]  7F C0 07 E0 00 00 00 3E
  can0  188   [6]  00 00 00 01 00 06
  can0  0E5   [4]  00 00 00 32
  can0  136   [8]  00 00 00 06 00 6C 00 33
  can0  13A   [8]  00 00 00 00 00 00 00 37
  can0  13F   [8]  00 41 00 41 00 00 00 38
  can0  164   [8]  04 10 00 10 B5 00 00 16
  can0  17C   [8]  00 34 02 E6 00 27 00 3B
  can0  182   [8]  00 00 02 E5 00 00 00 35
  can0  294   [8]  00 00 00 03 A9 AE 00 0B
  can0  1A6   [8]  04 00 00 10 B5 00 00 3F
  can0  39B   [2]  00 2F
  can0  255   [8]  00 00 00 00 55 55 40 16
  can0  158   [8]  00 00 02 D2 00 00 00 27
  can0  097   [8]  7F C0 07 E0 00 00 00 01
  can0  188   [6]  00 00 00 01 00 15
  can0  0E5   [4]  00 00 00 05
  can0  136   [8]  00 00 00 06 00 6D 00 05
  can0  13A   [8]  00 00 00 00 00 00 00 0A
  can0  13F   [8]  00 41 00 42 00 00 00 0A
  can0  17C   [8]  00 34 02 E4 00 27 00 00
  can0  164   [8]  04 10 00 10 B5 00 00 25
  can0  182   [8]  00 00 02 E5 00 00 00 08
  can0  1DC   [4]  02 02 E4 08
  can0  1A4   [8]  00 00 00 00 00 00 00 09
  can0  1AA   [8]  7F FF 00 00 00 00 66 03
  can0  1B0   [7]  80 40 FF FB 00 00 08
  can0  1D0   [8]  00 00 00 00 00 00 00 0A
  can0  158   [8]  00 00 02 D2 00 00 00 36
  can0  097   [8]  7F C0 07 E4 00 00 00 1C
  can0  188   [6]  00 00 00 01 00 24
  can0  0E5   [4]  00 00 00 14
  can0  136   [8]  00 00 00 06 00 6D 00 14
  can0  13A   [8]  00 00 00 00 00 00 00 19
  can0  13F   [8]  00 41 00 41 FF EC 00 12
  can0  17C   [8]  00 34 02 E3 00 27 00 10
  can0  039   [3]  00 00 1B
  can0  164   [8]  04 10 00 10 B5 00 00 34
  can0  182   [8]  00 00 02 E3 00 00 00 19
  can0  1A6   [8]  04 00 00 10 B5 00 00 02
  can0  158   [8]  00 00 02 D2 00 00 00 09
  can0  097   [8]  7F C0 07 E4 00 00 00 2B
  can0  188   [6]  00 00 00 01 00 33
  can0  0E5   [4]  00 00 00 23
  can0  136   [8]  00 00 00 06 00 6C 00 24
  can0  13A   [8]  00 00 00 00 00 00 00 28
  can0  13F   [8]  00 41 00 41 00 00 00 29
  can0  17C   [8]  00 34 02 E4 00 27 00 2E
  can0  164   [8]  04 10 00 10 B5 00 00 07
  can0  182   [8]  00 00 02 E3 00 00 00 28
  can0  1DC   [4]  02 02 E4 17
  can0  1A4   [8]  00 00 00 00 00 00 00 18
  can0  1AA   [8]  7F FF 00 00 00 00 66 12
  can0  1B0   [7]  80 40 FF FB 00 00 17
  can0  1D0   [8]  00 00 00 00 00 00 00 0A
  can0  158   [8]  00 00 02 D2 00 00 00 18
  can0  097   [8]  7F C0 07 E4 00 00 00 3A
  can0  188   [6]  00 00 00 01 00 06
  can0  0E5   [4]  00 00 00 32
  can0  136   [8]  00 00 00 06 00 6C 00 33
  can0  13A   [8]  00 00 00 00 00 00 00 37
  can0  13F   [8]  00 41 00 41 00 00 00 38
  can0  17C   [8]  00 34 02 E4 00 27 00 3D
  can0  164   [8]  04 10 00 10 B5 00 00 16
  can0  182   [8]  00 00 02 E3 00 00 00 37
  can0  294   [8]  00 00 00 03 A9 AE 00 1A
  can0  1A6   [8]  04 00 00 10 B5 00 00 11
  can0  3C5   [8]  00 00 00 00 00 00 00 13
  can0  3C6   [8]  00 00 00 00 00 00 00 12
  can0  255   [8]  00 00 00 00 55 55 41 15
  can0  158   [8]  00 00 02 D2 00 00 00 27
  can0  097   [8]  7F C0 07 E4 00 00 00 0D
  can0  188   [6]  00 00 00 01 00 15
  can0  0E5   [4]  00 00 00 05
  can0  136   [8]  00 00 00 06 00 6C 00 06
  can0  13A   [8]  00 00 00 00 00 00 00 0A
  can0  13F   [8]  00 41 00 41 00 14 00 06
  can0  17C   [8]  00 34 02 E6 00 27 00 0E
  can0  164   [8]  04 10 00 10 B5 00 00 25
  can0  182   [8]  00 00 02 E5 00 00 00 08
  can0  1DC   [4]  02 02 E6 24
  can0  1A4   [8]  00 00 00 00 00 00 00 27
  can0  1AA   [8]  7F FF 00 00 00 00 67 20
  can0  1B0   [7]  80 40 FF FB 00 00 26
  can0  1D0   [8]  00 00 00 00 00 00 00 0A
  can0  158   [8]  00 00 02 D2 00 00 00 36
  can0  097   [8]  7F C0 07 E4 00 00 00 1C
  can0  188   [6]  00 00 00 01 00 24
  can0  0E5   [4]  00 00 00 14
  can0  136   [8]  00 00 00 06 00 6C 00 15
  can0  13A   [8]  00 00 00 00 00 00 00 19
  can0  13F   [8]  00 41 00 41 00 00 00 1A
  can0  17C   [8]  00 34 02 E6 00 27 00 1D
  can0  164   [8]  04 10 00 10 B5 00 00 34
  can0  182   [8]  00 00 02 E5 00 00 00 17
  can0  1A6   [8]  04 00 00 10 B5 00 00 20
  can0  039   [3]  00 00 2A
  can0  158   [8]  00 00 02 D2 00 00 00 09
  can0  097   [8]  7F C0 07 E4 00 00 00 2B
  can0  188   [6]  00 00 00 01 00 33
  can0  0E5   [4]  00 00 00 23
  can0  136   [8]  00 00 00 06 00 6B 00 25
  can0  13A   [8]  00 00 00 00 00 00 00 28
  can0  13F   [8]  00 42 00 42 00 14 00 22
  can0  17C   [8]  00 34 02 E7 00 27 00 2B
  can0  164   [8]  04 10 00 10 B5 00 00 07
  can0  182   [8]  00 00 02 E7 00 00 00 24
  can0  1DC   [4]  02 02 E7 32
  can0  320   [8]  00 00 00 00 00 00 00 30
  can0  305   [7]  C0 94 00 00 00 00 07
  can0  324   [8]  6F 36 15 57 00 00 00 3C
  can0  328   [8]  00 00 00 00 00 80 00 21
  can0  1A4   [8]  00 00 00 00 00 00 00 36
  can0  1AA   [8]  7F FF 00 00 00 00 66 30
  can0  1B0   [7]  80 40 FF FB 00 00 35
  can0  1D0   [8]  00 00 00 00 00 00 00 0A
  can0  158   [8]  00 00 02 D2 00 00 00 18
  can0  097   [8]  7F C0 07 E4 00 00 00 3A
  can0  188   [6]  00 00 00 01 00 06
  can0  0E5   [4]  00 00 00 32
  can0  136   [8]  00 00 00 06 00 6B 00 34
  can0  13A   [8]  00 00 00 00 00 00 00 37
  can0  13F   [8]  00 42 00 42 00 00 00 36
  can0  17C   [8]  00 34 02 E8 00 27 00 39
  can0  164   [8]  04 10 00 10 B5 00 00 16
  can0  182   [8]  00 00 02 E7 00 00 00 33
  can0  294   [8]  00 00 00 03 A9 AE 00 29
  can0  1A6   [8]  04 00 00 10 B5 00 00 3F
  can0  309   [8]  00 00 00 00 00 00 00 75
  can0  367   [8]  EE 87 1E D2 37 7E FF 3F
  can0  374   [7]  2B 00 00 00 00 00 3A
  can0  405   [8]  00 00 24 00 00 00 80 3E
  can0  428   [7]  01 05 00 00 25 31 36
  can0  440   [8]  24 C1 52 15 CF FC FF 39
  can0  255   [8]  00 00 00 00 55 55 42 14
  can0  158   [8]  00 00 02 D2 00 00 00 27
  can0  097   [8]  7F C0 07 E4 00 00 00 0D
  can0  188   [6]  00 00 00 01 00 15
  can0  0E5   [4]  00 00 00 05
  can0  136   [8]  00 00 00 06 00 6B 00 07
  can0  13A   [8]  00 00 00 00 00 00 00 0A
  can0  13F   [8]  00 42 00 42 00 00 00 09
  can0  17C   [8]  00 34 02 E7 00 27 00 0D
  can0  182   [8]  00 00 02 E7 00 00 00 06
  can0  164   [8]  04 10 00 10 B5 00 00 25
  can0  1DC   [4]  02 02 E7 05
  can0  333   [7]  00 00 00 00 00 00 3C
  can0  1A4   [8]  00 00 00 00 00 00 00 09
  can0  1AA   [8]  7F FF 00 00 00 00 66 03
  can0  1B0   [7]  80 40 FF FB 00 00 08
  can0  1D0   [8]  00 00 00 00 00 00 00 0A
  can0  158   [8]  00 00 02 D2 00 00 00 36
  can0  097   [8]  7F C0 07 E0 00 00 00 10
  can0  188   [6]  00 00 00 01 00 24
  can0  0E5   [4]  00 00 00 14
  can0  136   [8]  00 00 00 06 00 6B 00 16
  can0  13A   [8]  00 00 00 00 00 00 00 19
  can0  13F   [8]  00 42 00 42 00 00 00 18
  can0  17C   [8]  00 34 02 E7 00 27 00 1C
  can0  039   [3]  00 00 39
  can0  164   [8]  04 10 00 10 B5 00 00 34
  can0  182   [8]  00 00 02 E7 00 00 00 15
  can0  1A6   [8]  04 00 00 10 B5 00 00 02
  can0  39B   [2]  00 3E
  can0  158   [8]  00 00 02 D2 00 00 00 09
  can0  097   [8]  7F C0 07 E0 00 00 00 2F
  can0  188   [6]  00 00 00 01 00 33
  can0  0E5   [4]  00 00 00 23
  can0  136   [8]  00 00 00 06 00 6D 00 23
  can0  13A   [8]  00 00 00 00 00 00 00 28
  can0  13F   [8]  00 42 00 42 00 00 00 27
  can0  17C   [8]  00 34 02 E6 00 27 00 2C
  can0  182   [8]  00 00 02 E7 00 00 00 24
  can0  164   [8]  04 10 00 10 B5 00 00 07
  can0  1DC   [4]  02 02 E6 15
  can0  1A4   [8]  00 00 00 00 00 00 00 18
  can0  1AA   [8]  7F FF 00 00 00 00 66 12
  can0  1B0   [7]  80 40 FF FB 00 00 17
  can0  1D0   [8]  00 00 00 00 00 00 00 0A
  can0  158   [8]  00 00 02 D2 00 00 00 18
  can0  097   [8]  7F C0 07 E4 00 00 00 3A
  can0  188   [6]  00 00 00 01 00 06
  can0  0E5   [4]  00 00 00 32
  can0  136   [8]  00 00 00 06 00 6D 00 32
  can0  13A   [8]  00 00 00 00 00 00 00 37
  can0  13F   [8]  00 42 00 42 00 00 00 36
  can0  17C   [8]  00 34 02 E5 00 27 00 3C
  can0  182   [8]  00 00 02 E7 00 00 00 33
  can0  164   [8]  04 10 00 10 B5 00 00 16
  can0  1A6   [8]  04 00 00 10 B5 00 00 11
  can0  294   [8]  00 00 00 03 A9 AE 00 38
  can0  255   [8]  00 00 00 00 55 55 43 13
  can0  158   [8]  00 00 02 D2 00 00 00 27
  can0  097   [8]  7F C0 07 E4 00 00 00 0D
  can0  188   [6]  00 00 00 01 00 15
  can0  0E5   [4]  00 00 00 05
  can0  136   [8]  00 00 00 06 00 6C 00 06
  can0  13A   [8]  00 00 00 00 00 00 00 0A
  can0  13F   [8]  00 41 00 42 FF E2 00 0C
  can0  17C   [8]  00 34 02 E3 00 28 00 00
  can0  182   [8]  00 00 02 E4 00 00 00 09
  can0  164   [8]  04 10 00 10 B5 00 00 25
  can0  1DC   [4]  02 02 E3 27
  can0  1A4   [8]  00 00 00 00 00 00 00 27
  can0  1AA   [8]  7F FF 00 00 00 00 66 21
  can0  1B0   [7]  80 40 FF FB 00 00 26
  can0  1D0   [8]  00 00 00 00 00 00 00 0A
  can0  158   [8]  00 00 02 D2 00 00 00 36
  can0  097   [8]  7F C0 07 E4 00 00 00 1C
  can0  188   [6]  00 00 00 01 00 24
  can0  0E5   [4]  00 00 00 14
  can0  136   [8]  00 00 00 06 00 6C 00 15
  can0  13A   [8]  00 00 00 00 00 00 00 19
  can0  13F   [8]  00 41 00 41 00 00 00 1A
  can0  17C   [8]  00 34 02 E4 00 27 00 1F
  can0  039   [3]  00 00 0C
  can0  164   [8]  04 10 00 10 B5 00 00 34
  can0  182   [8]  00 00 02 E4 00 00 00 18
  can0  1A6   [8]  04 00 00 10 B5 00 00 20
  can0  158   [8]  00 00 02 D2 00 00 00 09
  can0  097   [8]  7F C0 07 E0 00 00 00 2F
  can0  188   [6]  00 00 00 01 00 33
  can0  6C4   [1]  3F
  can0  0E5   [4]  00 00 00 23
  can0  136   [8]  00 00 00 06 00 6B 00 25
  can0  13A   [8]  00 00 00 00 00 00 00 28
  can0  13F   [8]  00 41 00 41 00 0A 00 2F
  can0  17C   [8]  00 34 02 E5 00 27 00 2D
  can0  182   [8]  00 00 02 E5 00 00 00 26
  can0  164   [8]  04 10 00 10 B5 00 00 07
  can0  1DC   [4]  02 02 E5 34
  can0  1A4   [8]  00 00 00 00 00 00 00 36
  can0  1AA   [8]  7F FF 00 00 00 00 66 30
  can0  1B0   [7]  80 40 FF FB 00 00 35
  can0  1D0   [8]  00 00 00 00 00 00 00 0A
  can0  158   [8]  00 00 02 D2 00 00 00 18
  can0  097   [8]  7F C0 07 E0 00 00 00 3E
  can0  188   [6]  00 00 00 01 00 06
  can0  0E5   [4]  00 00 00 32
  can0  136   [8]  00 00 00 06 00 6C 00 33
  can0  13A   [8]  00 00 00 00 00 00 00 37
  can0  13F   [8]  00 41 00 41 00 00 00 38
  can0  17C   [8]  00 34 02 E5 00 27 00 3C
  can0  182   [8]  00 00 02 E5 00 00 00 35
  can0  164   [8]  04 10 00 10 B5 00 00 16
  can0  1A6   [8]  04 00 00 10 B5 00 00 3F
  can0  294   [8]  00 00 00 03 A9 AE 00 0B
  can0  255   [8]  00 00 00 00 55 55 44 12
  can0  158   [8]  00 00 02 D2 00 00 00 27
  can0  097   [8]  7F 80 07 E4 00 00 00 01
  can0  188   [6]  00 00 00 01 00 15
  can0  0E5   [4]  00 00 00 05
  can0  136   [8]  00 00 00 06 00 6B 00 07
  can0  13A   [8]  00 00 00 00 00 00 00 0A
  can0  13F   [8]  00 41 00 41 00 00 00 0B
  can0  17C   [8]  00 34 02 E6 00 27 00 0E
  can0  182   [8]  00 00 02 E5 00 00 00 08
  can0  164   [8]  04 10 00 10 B5 00 00 25
  can0  1DC   [4]  02 02 E6 06
  can0  320   [8]  00 00 00 00 00 00 00 03
  can0  324   [8]  6F 36 15 57 00 00 00 0F
  can0  328   [8]  00 00 00 00 00 80 00 30
  can0  3C3   [8]  00 00 00 00 00 00 00 24
  can0  3C7   [8]  00 00 00 00 00 00 00 20
  can0  305   [7]  C0 94 00 00 00 00 16
  can0  3D7   [8]  B0 00 00 00 00 00 00 24
  can0  40C   [8]  03 31 31 32 33 37 00 08
  can0  441   [8]  09 FF FF FF FF FF FF 02
  can0  454   [8]  63 F4 02 3E 9C 00 00 07
  can0  6C1   [1]  32
  can0  1A4   [8]  00 00 00 00 00 00 00 09
  can0  1AA   [8]  7F FF 00 00 00 00 66 03
  can0  1B0   [7]  80 80 FF FB 00 00 04
  can0  1D0   [8]  00 00 00 00 00 00 00 0A
  can0  158   [8]  00 00 02 D2 00 00 00 36
  can0  097   [8]  7F 80 07 E0 00 00 00 14
  can0  188   [6]  00 00 00 01 00 24
  can0  0E5   [4]  00 00 00 14
  can0  136   [8]  00 00 00 06 00 6A 00 17
  can0  13A   [8]  00 00 00 00 00 00 00 19
  can0  13F   [8]  00 42 00 42 00 0A 00 1E
  can0  17C   [8]  00 34 02 E6 00 27 00 1D
  can0  182   [8]  00 00 02 E6 00 00 00 16
  can0  164   [8]  04 10 00 10 B5 00 00 34
  can0  1A6   [8]  04 00 00 10 B5 00 00 02
  can0  309   [8]  00 00 00 00 00 00 00 48
  can0  367   [8]  EC 87 1E D2 37 7E FF 04
  can0  374   [7]  2B 00 00 00 00 00 0D
  can0  039   [3]  00 00 1B
  can0  158   [8]  00 00 02 D2 00 00 00 09
  can0  097   [8]  7F 80 07 E0 00 00 00 23
  can0  188   [6]  00 00 00 01 00 33
  can0  0E5   [4]  00 00 00 23
  can0  136   [8]  00 00 00 06 00 6B 00 25
  can0  13A   [8]  00 00 00 00 00 00 00 28
  can0  13F   [8]  00 42 00 42 00 00 00 27
  can0  17C   [8]  00 34 02 E6 00 27 00 2C
  can0  182   [8]  00 00 02 E6 00 00 00 25
  can0  1DC   [4]  02 02 E6 15
  can0  164   [8]  04 10 00 10 B5 00 00 07
  can0  333   [7]  00 00 00 00 00 00 0F
  can0  1A4   [8]  00 00 00 00 00 00 00 18
  can0  1AA   [8]  7F FF 00 00 00 00 66 12
  can0  1B0   [7]  80 80 FF FB 00 00 13
  can0  1D0   [8]  00 00 00 00 00 00 00 0A
  can0  158   [8]  00 00 02 D2 00 00 00 18
  can0  097   [8]  7F 80 07 E0 00 00 00 32
  can0  188   [6]  00 00 00 01 00 06
  can0  0E5   [4]  00 00 00 32
  can0  136   [8]  00 00 00 06 00 6C 00 33
  can0  13A   [8]  00 00 00 00 00 00 00 37
  can0  13F   [8]  00 42 00 42 00 00 00 36
  can0  17C   [8]  00 34 02 E6 00 27 00 3B
  can0  182   [8]  00 00 02 E6 00 00 00 34
  can0  164   [8]  04 10 00 10 B5 00 00 16
  can0  1A6   [8]  04 00 00 10 B5 00 00 11
  can0  294   [8]  00 00 00 03 A9 AE 00 1A
  can0  39B   [2]  00 01
  can0  255   [8]  00 00 00 00 55 55 45 11
  can0  158   [8]  00 00 02 D2 00 00 00 27
  can0  097   [8]  7F 80 07 E4 00 00 00 01
  can0  188   [6]  00 00 00 01 00 15
  can0  0E5   [4]  00 00 00 05
  can0  136   [8]  00 00 00 06 00 6D 00 05
  can0  13A   [8]  00 00 00 00 00 00 00 0A
  can0  13F   [8]  00 42 00 42 00 0A 00 0F
  can0  17C   [8]  00 34 02 E7 00 27 00 0D
  can0  182   [8]  00 00 02 E7 00 00 00 06
  can0  1DC   [4]  02 02 E7 23
  can0  164   [8]  04 10 00 10 B5 00 00 25
  can0  1A4   [8]  00 00 00 00 00 00 00 27
  can0  1AA   [8]  7F FF 00 00 00 00 67 20
  can0  1B0   [7]  80 80 FF FB 00 00 22
  can0  1D0   [8]  00 00 00 00 00 00 00 0A
  can0  158   [8]  00 00 02 D2 00 00 00 36
  can0  097   [8]  7F C0 07 E4 00 00 00 1C
  can0  188   [6]  00 00 00 01 00 24
  can0  0E5   [4]  00 00 00 14
  can0  136   [8]  00 00 00 06 00 6C 00 15
  can0  13A   [8]  00 00 00 00 00 00 00 19
  can0  13F   [8]  00 42 00 42 00 00 00 18
  can0  17C   [8]  00 34 02 E6 00 27 00 1D
  can0  182   [8]  00 00 02 E7 00 00 00 15
  can0  164   [8]  04 10 00 10 B5 00 00 34
  can0  1A6   [8]  04 00 00 10 B5 00 00 20
  can0  039   [3]  00 00 2A
  can0  158   [8]  00 00 02 D2 00 00 00 09
  can0  097   [8]  7F 80 07 E0 00 00 00 23
  can0  188   [6]  00 00 00 01 00 33
  can0  0E5   [4]  00 00 00 23
  can0  136   [8]  00 00 00 06 00 6A 00 26
  can0  13A   [8]  00 00 00 00 00 00 00 28
  can0  13F   [8]  00 41 00 42 FF E2 00 2A
  can0  17C   [8]  00 34 02 E5 00 27 00 2D
  can0  182   [8]  00 00 02 E4 00 00 00 27
  can0  1DC   [4]  02 02 E5 34
  can0  164   [8]  04 10 00 10 B5 00 00 07
  can0  1A4   [8]  00 00 00 00 00 00 00 36
  can0  1AA   [8]  7F FF 00 00 00 00 67 3F
  can0  1B0   [7]  80 80 FF FB 00 00 31
  can0  1D0   [8]  00 00 00 00 00 00 00 0A
  can0  158   [8]  00 00 02 D2 00 00 00 18
  can0  097   [8]  7F 80 07 E4 00 00 00 3E
  can0  188   [6]  00 00 00 01 00 06
  can0  0E5   [4]  00 00 00 32
  can0  136   [8]  00 00 00 06 00 6A 00 35
  can0  13A   [8]  00 00 00 00 00 00 00 37
  can0  13F   [8]  00 41 00 42 00 00 00 37
  can0  17C   [8]  00 34 02 E3 00 27 00 3E
  can0  182   [8]  00 00 02 E4 00 00 00 36
  can0  164   [8]  04 10 00 10 B5 00 00 16
  can0  1A6   [8]  04 00 00 10 B5 00 00 3F
  can0  294   [8]  00 00 00 03 A9 AE 00 29
  can0  3C5   [8]  00 00 00 00 00 00 00 22
  can0  3C6   [8]  00 00 00 00 00 00 00 21
  can0  6E5   [1]  0F
  can0  255   [8]  00 00 00 00 55 55 46 10
  can0  158   [8]  00 00 02 D2 00 00 00 27
  can0  097   [8]  7F 80 07 E4 00 00 00 01
  can0  188   [6]  00 00 00 01 00 15
  can0  0E5   [4]  00 00 00 05
  can0  136   [8]  00 00 00 06 00 6C 00 06
  can0  13A   [8]  00 00 00 00 00 00 00 0A
  can0  13F   [8]  00 41 00 42 00 00 00 0A
  can0  17C   [8]  00 34 02 E3 00 27 00 01
  can0  182   [8]  00 00 02 E4 00 00 00 09
  can0  1DC   [4]  02 02 E3 09
  can0  164   [8]  04 10 00 10 B5 00 00 25
  can0  1A4   [8]  00 00 00 00 00 00 00 09
  can0  1AA   [8]  7F FF 00 00 00 00 67 02
  can0  1B0   [7]  80 80 FF FB 00 00 04
  can0  1D0   [8]  00 00 00 00 00 00 00 0A
  can0  158   [8]  00 00 02 D2 00 00 00 36
  can0  097   [8]  7F 80 07 E0 00 00 00 14
  can0  188   [6]  00 00 00 01 00 24
  can0  0E5   [4]  00 00 00 14
  can0  136   [8]  00 00 00 06 00 6D 00 14
  can0  13A   [8]  00 00 00 00 00 00 00 19
  can0  13F   [8]  00 41 00 41 00 00 00 1A
  can0  17C   [8]  00 34 02 E4 00 27 00 1F
  can0  182   [8]  00 00 02 E4 00 00 00 18
  can0  164   [8]  04 10 00 0F B5 00 00 36
  can0  1A6   [8]  04 00 00 0F B5 00 00 04
  can0  039   [3]  00 00 39
  can0  158   [8]  00 00 02 D1 00 00 00 0A
  can0  097   [8]  7F C0 07 E0 00 00 00 2F
  can0  188   [6]  00 00 00 01 00 33
  can0  0E5   [4]  00 00 00 23
  can0  136   [8]  00 00 00 06 00 6D 00 23
  can0  13A   [8]  00 00 00 00 00 00 00 28
  can0  13F   [8]  00 41 00 42 00 00 00 28
  can0  17C   [8]  00 34 02 E3 00 28 00 2E
  can0  182   [8]  00 00 02 E4 00 00 00 27
  can0  1DC   [4]  02 02 E3 18
  can0  320   [8]  00 00 00 00 00 00 00 12
  can0  164   [8]  04 10 00 0F B5 00 00 09
  can0  324   [8]  6F 36 15 57 00 00 00 1E
  can0  328   [8]  00 00 00 00 00 80 00 03
  can0  305   [7]  C0 94 00 00 00 00 25
  can0  1A4   [8]  00 00 00 00 00 00 00 18
  can0  1AA   [8]  7F FF 00 00 00 00 66 12
  can0  1B0   [7]  80 40 FF FB 00 00 17
  can0  1D0   [8]  00 00 00 00 00 00 00 0A
  can0  158   [8]  00 00 02 D1 00 00 00 19
  can0  097   [8]  7F C0 07 E0 00 00 00 3E
  can0  188   [6]  00 00 00 01 00 06
  can0  0E5   [4]  00 00 00 32
  can0  136   [8]  00 00 00 06 00 6C 00 33
  can0  13A   [8]  00 00 00 00 00 00 00 37
  can0  13F   [8]  00 41 00 42 00 00 00 37
  can0  17C   [8]  00 34 02 E1 00 27 00 30
  can0  182   [8]  00 00 02 E4 00 00 00 36
  can0  164   [8]  04 10 00 0F B5 00 00 18
  can0  1A6   [8]  04 00 00 0F B5 00 00 13
  can0  294   [8]  00 00 00 03 A9 AE 00 38
  can0  309   [8]  00 00 00 00 00 00 00 57
  can0  367   [8]  EB 87 1E D2 37 7E FF 14
  can0  374   [7]  2B 00 00 00 00 00 1C
  can0  255   [8]  00 00 00 00 55 55 47 0F
  can0  158   [8]  00 00 02 D1 00 00 00 28
  can0  097   [8]  7F C0 07 E4 00 00 00 0D
  can0  188   [6]  00 00 00 01 00 15
  can0  0E5   [4]  00 00 00 05
  can0  136   [8]  00 00 00 06 00 6B 01 06
  can0  13A   [8]  00 00 00 00 00 00 00 0A
  can0  13F   [8]  00 40 00 41 FF D8 00 09
  can0  17C   [8]  00 34 02 E0 00 27 00 04
  can0  182   [8]  00 00 02 E0 00 00 00 0D
  can0  1DC   [4]  02 02 E0 2A
  can0  333   [7]  00 00 00 00 00 00 1E
  can0  164   [8]  04 10 00 0F B5 00 00 27
  can0  1A4   [8]  00 00 00 00 00 00 00 27
  can0  1AA   [8]  7F FF 00 00 00 00 66 21
  can0  1B0   [7]  80 40 FF FB 00 00 26
  can0  1D0   [8]  00 00 00 00 00 00 00 0A
  can0  158   [8]  00 00 02 D0 00 00 00 38
  can0  097   [8]  7F C0 07 E4 00 00 00 1C
  can0  188   [6]  00 00 00 01 00 24
  can0  0E5   [4]  00 00 00 14
  can0  136   [8]  00 00 00 06 00 6C 01 14
  can0  13A   [8]  00 00 00 00 00 00 00 19
  can0  13F   [8]  00 40 00 41 00 00 00 1B
  can0  17C   [8]  00 34 02 DF 00 27 00 15
  can0  182   [8]  00 00 02 E0 00 00 00 1C
  can0  164   [8]  04 10 00 0F B5 00 00 36
  can0  1A6   [8]  04 00 00 0F B5 00 00 22
  can0  39B   [2]  00 10
  can0  039   [3]  00 00 0C
  can0  158   [8]  00 00 02 D0 00 00 00 0B
  can0  097   [8]  7F C0 07 E0 00 00 00 2F
  can0  188   [6]  00 00 00 01 00 33
  can0  0E5   [4]  00 00 00 23
  can0  136   [8]  00 00 00 06 00 6D 01 22
  can0  13A   [8]  00 00 00 00 00 00 00 28
  can0  13F   [8]  00 40 00 40 00 00 00 2B
  can0  17C   [8]  00 34 02 DF 00 27 00 24
  can0  182   [8]  00 00 02 E0 00 00 00 2B
  can0  1DC   [4]  02 02 DF 3B
  can0  164   [8]  04 10 00 0F B5 00 00 09
  can0  1A4   [8]  00 00 00 00 00 00 00 36
  can0  1AA   [8]  7F FF 00 00 00 00 66 30
  can0  1B0   [7]  80 40 FF FB 00 00 35
  can0  1D0   [8]  00 00 00 00 00 00 00 0A
  can0  158   [8]  00 00 02 D0 00 00 00 1A
  can0  097   [8]  7F C0 07 E0 00 00 00 3E
  can0  188   [6]  00 00 00 01 00 06
  can0  0E5   [4]  00 00 00 32
  can0  136   [8]  00 00 00 06 00 6D 01 31
  can0  13A   [8]  00 00 00 00 00 00 00 37
  can0  13F   [8]  00 40 00 40 00 00 00 3A
  can0  17C   [8]  00 34 02 E1 00 27 00 30
  can0  182   [8]  00 00 02 E0 00 00 00 3A
  can0  164   [8]  04 10 00 0F B5 00 00 18
  can0  1A6   [8]  04 00 00 0F B5 00 00 31
  can0  294   [8]  00 00 00 03 A9 AE 00 0B
  can0  255   [8]  00 00 00 00 55 55 48 0E
  can0  158   [8]  00 00 02 CF 00 00 00 2B
  can0  097   [8]  7F C0 07 E4 00 00 00 0D
  can0  188   [6]  00 00 00 01 00 15
  can0  0E5   [4]  00 00 00 05
  can0  136   [8]  00 00 00 06 00 6C 01 05
  can0  13A   [8]  00 00 00 00 00 00 00 0A
  can0  13F   [8]  00 40 00 40 00 00 00 0D
  can0  17C   [8]  00 34 02 E1 00 27 00 03
  can0  182   [8]  00 00 02 E0 00 00 00 0D
  can0  1DC   [4]  02 02 E1 0B
  can0  164   [8]  04 10 00 0F B5 00 00 27
  can0  1A4   [8]  00 00 00 00 00 00 00 09
  can0  1AA   [8]  7F FF 00 00 00 00 66 03
  can0  1B0   [7]  80 40 FF FB 00 00 08
  can0  1D0   [8]  00 00 00 00 00 00 00 0A
  can0  158   [8]  00 00 02 CE 00 00 00 3B
  can0  097   [8]  7F C0 07 E4 00 00 00 1C
  can0  188   [6]  00 00 00 01 00 24
  can0  0E5   [4]  00 00 00 14
  can0  136   [8]  00 00 00 06 00 6B 00 16
  can0  13A   [8]  00 00 00 00 00 00 00 19
  can0  13F   [8]  00 41 00 41 00 14 00 15
  can0  17C   [8]  00 34 02 E2 00 27 00 11
  can0  182   [8]  00 00 02 E2 00 00 00 1A
  can0  164   [8]  04 10 00 0F B5 00 00 36
  can0  1A6   [8]  04 00 00 0F B5 00 00 04
  can0  039   [3]  00 00 1B
  can0  158   [8]  00 00 02 CF 00 00 00 0D
  can0  097   [8]  7F C0 07 E0 00 00 00 2F
  can0  188   [6]  00 00 00 01 00 33
  can0  0E5   [4]  00 00 00 23
  can0  136   [8]  00 00 00 06 00 6B 00 25
  can0  13A   [8]  00 00 00 00 00 00 00 28
  can0  13F   [8]  00 41 00 41 00 00 00 29
  can0  17C   [8]  00 34 02 E2 00 28 00 2F
  can0  182   [8]  00 00 02 E2 00 00 00 29
  can0  1DC   [4]  02 02 E2 19
  can0  164   [8]  04 10 00 0F B5 00 00 09
  can0  1A4   [8]  00 00 00 00 00 00 00 18
  can0  1AA   [8]  7F FF 00 00 00 00 66 12
  can0  1B0   [7]  80 40 FF FB 00 00 17
  can0  1D0   [8]  00 00 00 00 00 00 00 0A
  can0  158   [8]  00 00 02 CF 00 00 00 1C
  can0  097   [8]  7F C0 07 E4 00 00 00 3A
  can0  188   [6]  00 00 00 01 00 06
  can0  0E5   [4]  00 00 00 32
  can0  136   [8]  00 00 00 06 00 6C 00 33
  can0  13A   [8]  00 00 00 00 00 00 00 37
  can0  13F   [8]  00 41 00 41 00 00 00 38
  can0  17C   [8]  00 34 02 E5 00 27 00 3C
  can0  182   [8]  00 00 02 E2 00 00 00 38
  can0  164   [8]  04 10 00 10 B5 00 00 16
  can0  1A6   [8]  04 00 00 10 B5 00 00 11
  can0  294   [8]  00 00 00 03 A9 AE 00 1A
  can0  255   [8]  00 00 00 00 55 55 49 0D
  can0  158   [8]  00 00 02 CF 00 00 00 2B
  can0  097   [8]  7F C0 07 E4 00 00 00 0D
  can0  188   [6]  00 00 00 01 00 15
  can0  0E5   [4]  00 00 00 05
  can0  136   [8]  00 00 00 06 00 6B 00 07
  can0  13A   [8]  00 00 00 00 00 00 00 0A
  can0  13F   [8]  00 42 00 42 00 32 00 04
  can0  17C   [8]  00 34 02 E7 00 27 00 0D
  can0  182   [8]  00 00 02 E7 00 00 00 06
  can0  1DC   [4]  02 02 E7 23
  can0  320   [8]  00 00 00 00 00 00 00 21
  can0  324   [8]  6F 36 15 58 00 00 00 2C
  can0  164   [8]  04 10 00 10 B5 00 00 25
  can0  328   [8]  00 00 00 00 00 80 00 12
  can0  3C3   [8]  00 00 00 00 00 00 00 33
  can0  3C7   [8]  00 00 00 00 00 00 00 3F
  can0  3D7   [8]  B0 00 00 00 00 00 00 7F
  can0  305   [7]  C0 94 00 00 00 00 34
  can0  555   [5]  00 00 00 04 14
  can0  1A4   [8]  00 00 00 00 00 00 00 27
  can0  1AA   [8]  7F FF 00 00 00 00 66 21
  can0  1B0   [7]  80 40 FF FB 00 00 26
  can0  1D0   [8]  00 00 00 00 00 00 00 0A
  can0  158   [8]  00 00 02 CF 00 00 00 3A
  can0  097   [8]  7F C0 07 E4 00 00 00 1C
  can0  188   [6]  00 00 00 01 00 24
  can0  0E5   [4]  00 00 00 14
  can0  136   [8]  00 00 00 06 00 69 00 18
  can0  13A   [8]  00 00 00 00 00 00 00 19
  can0  13F   [8]  00 42 00 42 00 00 00 18
  can0  17C   [8]  00 34 02 E8 00 28 00 1A
  can0  182   [8]  00 00 02 E7 00 00 00 15
  can0  164   [8]  04 10 00 10 B5 00 00 34
  can0  1A6   [8]  04 00 00 10 B5 00 00 20
  can0  309   [8]  00 00 00 00 00 00 00 66
  can0  367   [8]  ED 87 1E D2 37 7E FF 21
  can0  374   [7]  2B 00 00 00 00 00 2B
  can0  405   [8]  00 00 24 00 00 00 80 01
  can0  428   [7]  01 05 00 00 25 31 09
  can0  440   [8]  26 B5 00 B5 00 FF FF 0C
  can0  039   [3]  00 00 2A
  can0  158   [8]  00 00 02 D0 00 00 00 0B
  can0  097   [8]  7F C0 07 E4 00 00 00 2B
  can0  188   [6]  00 00 00 01 00 33
  can0  0E5   [4]  00 00 00 23
  can0  136   [8]  00 00 00 06 00 6A 00 26
  can0  13A   [8]  00 00 00 00 00 00 00 28
  can0  13F   [8]  00 42 00 42 00 00 00 27
  can0  17C   [8]  00 34 02 E9 00 27 00 29
  can0  182   [8]  00 00 02 E7 00 00 00 24
  can0  1DC   [4]  02 02 E9 30
  can0  333   [7]  00 00 00 00 00 00 2D
  can0  164   [8]  04 10 00 10 B5 00 00 07
  can0  1A4   [8]  00 00 00 00 00 00 00 36
  can0  1AA   [8]  7F FF 00 00 00 00 66 30
  can0  1B0   [7]  80 40 FF FB 00 00 35
  can0  1D0   [8]  00 00 00 00 00 00 00 0A
  can0  158   [8]  00 00 02 D0 00 00 00 1A
  can0  097   [8]  7F 80 07 E4 00 00 00 3E
  can0  188   [6]  00 00 00 01 00 06
  can0  0E5   [4]  00 00 00 32
  can0  136   [8]  00 00 00 06 00 6A FF 37
  can0  13A   [8]  00 00 00 00 00 00 00 37
  can0  13F   [8]  00 42 00 42 00 14 00 31
  can0  17C   [8]  00 34 02 EA 00 27 00 37
  can0  182   [8]  00 00 02 E9 00 00 00 31
  can0  164   [8]  04 10 00 10 B5 00 00 16
  can0  1A6   [8]  04 00 00 10 B5 00 00 3F
  can0  294   [8]  00 00 00 03 A9 AE 00 29
  can0  39B   [2]  00 2F
  can0  255   [8]  00 00 00 00 55 55 4A 0C
  can0  158   [8]  00 00 02 D1 00 00 00 28
  can0  097   [8]  7F C0 07 E4 00 00 00 0D
  can0  188   [6]  00 00 00 01 00 15
  can0  0E5   [4]  00 00 00 05
  can0  136   [8]  00 00 00 06 00 6B FF 09
  can0  13A   [8]  00 00 00 00 00 00 00 0A
  can0  13F   [8]  00 42 00 42 00 00 00 09
  can0  17C   [8]  00 34 02 EB 00 27 00 09
  can0  182   [8]  00 00 02 E9 00 00 00 04
  can0  1DC   [4]  02 02 EB 01
  can0  164   [8]  04 10 00 10 B5 00 00 25
  can0  1A4   [8]  00 00 00 00 00 00 00 09
  can0  1AA   [8]  7F FF 00 00 00 00 67 02
  can0  1B0   [7]  80 40 FF FB 00 00 08
  can0  1D0   [8]  00 00 00 00 00 00 00 0A
  can0  158   [8]  00 00 02 D2 00 00 00 36
  can0  097   [8]  7F C0 07 E4 00 00 00 1C
  can0  188   [6]  00 00 00 01 00 24
  can0  0E5   [4]  00 00 00 14
  can0  136   [8]  00 00 00 06 00 6C FE 18
  can0  13A   [8]  00 00 00 00 00 00 00 19
  can0  13F   [8]  00 43 00 43 00 1E 00 17
  can0  17C   [8]  00 34 02 EC 00 27 00 17
  can0  182   [8]  00 00 02 EC 00 00 00 10
  can0  164   [8]  04 10 00 10 B5 00 00 34
  can0  1A6   [8]  04 00 00 10 B5 00 00 02
  can0  039   [3]  00 00 39
  can0  158   [8]  00 00 02 D3 00 00 00 08
  can0  097   [8]  7F C0 07 E4 00 00 00 2B
  can0  188   [6]  00 00 00 01 00 33
  can0  0E5   [4]  00 00 00 23
  can0  136   [8]  00 00 00 06 00 69 FE 2A
  can0  13A   [8]  00 00 00 00 00 00 00 28
  can0  13F   [8]  00 43 00 43 00 00 00 25
  can0  17C   [8]  00 34 02 EC 00 28 00 25
  can0  182   [8]  00 00 02 EC 00 00 00 2F
  can0  1DC   [4]  02 02 EC 1F
  can0  164   [8]  04 10 00 10 B5 00 00 07
  can0  1A4   [8]  00 00 00 00 00 00 00 18
  can0  1AA   [8]  7F FF 00 00 00 00 66 12
  can0  1B0   [7]  80 40 FF FB 00 00 17
  can0  1D0   [8]  00 00 00 00 00 00 00 0A
  can0  158   [8]  00 00 02 D3 00 00 00 17
  can0  097   [8]  7F C0 07 E4 00 00 00 3A
  can0  188   [6]  00 00 00 01 00 06
  can0  0E5   [4]  00 00 00 32
  can0  136   [8]  00 00 00 06 00 6A FE 38
  can0  13A   [8]  00 00 00 00 00 00 00 37
  can0  13F   [8]  00 43 00 43 00 00 00 34
  can0  17C   [8]  00 34 02 EB 00 27 00 36
  can0  182   [8]  00 00 02 EC 00 00 00 3E
  can0  164   [8]  04 10 00 10 B5 00 00 16
  can0  1A6   [8]  04 00 00 10 B5 00 00 11
  can0  294   [8]  00 00 00 03 A9 AE 00 38
  can0  3C5   [8]  00 00 00 00 00 00 00 31
  can0  3C6   [8]  00 00 00 00 00 00 00 30
  can0  255   [8]  00 00 00 00 55 55 4B 0B
  can0  158   [8]  00 00 02 D4 00 00 00 25
  can0  097   [8]  7F C0 07 E4 00 00 00 0D
  can0  188   [6]  00 00 00 01 00 15
  can0  6C4   [1]  02
  can0  0E5   [4]  00 00 00 05
  can0  136   [8]  00 00 00 06 00 6B FE 0A
  can0  13A   [8]  00 00 00 00 00 00 00 0A
  can0  13F   [8]  00 43 00 43 FF F6 00 04
  can0  17C   [8]  00 34 02 EB 00 27 00 09
  can0  182   [8]  00 00 02 EB 00 00 00 02
  can0  1DC   [4]  02 02 EB 2F
  can0  164   [8]  04 10 00 10 B5 00 00 25
  can0  1A4   [8]  00 00 00 00 00 00 00 27
  can0  1AA   [8]  7F FF 00 00 00 00 66 21
  can0  1B0   [7]  80 40 FF FB 00 00 26
  can0  1D0   [8]  00 00 00 00 00 00 00 0A
  can0  158   [8]  00 00 02 D4 00 00 00 34
  can0  097   [8]  7F C0 07 E4 00 00 00 1C
  can0  188   [6]  00 00 00 01 00 24
  can0  0E5   [4]  00 00 00 14
  can0  136   [8]  00 00 00 06 00 6B FE 19
  can0  13A   [8]  00 00 00 00 00 00 00 19
  can0  13F   [8]  00 43 00 43 00 00 00 16
  can0  17C   [8]  00 34 02 EB 00 27 00 18
  can0  182   [8]  00 00 02 EB 00 00 00 11
  can0  164   [8]  04 10 00 10 B5 00 00 34
  can0  1A6   [8]  04 00 00 10 B5 00 00 20
  can0  039   [3]  00 00 0C
  can0  158   [8]  00 00 02 D5 00 00 00 06
  can0  097   [8]  7F C0 07 E4 00 00 00 2B
  can0  188   [6]  00 00 00 01 00 33
  can0  0E5   [4]  00 00 00 23
  can0  136   [8]  00 00 00 06 00 6B FE 28
  can0  13A   [8]  00 00 00 00 00 00 00 28
  can0  13F   [8]  00 43 00 43 00 00 00 25
  can0  17C   [8]  00 34 02 EC 00 27 00 26
  can0  182   [8]  00 00 02 EB 00 00 00 20
  can0  1DC   [4]  02 02 EC 3D
  can0  320   [8]  00 00 00 00 00 00 00 30
  can0  324   [8]  6F 36 15 58 00 00 00 3B
  can0  328   [8]  00 00 00 00 00 80 00 21
  can0  164   [8]  04 10 00 10 B5 00 00 07
  can0  40C   [8]  00 00 00 00 04 00 00 13
  can0  441   [8]  09 FF FF FF FF FF FF 11
  can0  454   [8]  63 F4 02 3E 9C 00 00 16
  can0  6C1   [1]  05
  can0  305   [7]  C0 94 00 00 00 00 07
  can0  1A4   [8]  00 00 00 00 00 00 00 36
  can0  1AA   [8]  7F FF 00 00 00 00 67 3F
  can0  1B0   [7]  80 40 FF FB 00 00 35
  can0  1D0   [8]  00 00 00 00 00 00 00 0A
  can0  158   [8]  00 00 02 D5 00 00 00 15
  can0  097   [8]  7F C0 07 E0 00 00 00 3E
  can0  188   [6]  00 00 00 01 00 06
  can0  0E5   [4]  00 00 00 32
  can0  136   [8]  00 00 00 06 00 69 FE 39
  can0  13A   [8]  00 00 00 00 00 00 00 37
  can0  13F   [8]  00 43 00 43 00 0A 00 3A
  can0  17C   [8]  00 34 02 ED 00 27 00 34
  can0  182   [8]  00 00 02 EC 00 00 00 3E
  can0  164   [8]  04 10 00 10 B5 00 00 16
  can0  1A6   [8]  04 00 00 10 B5 00 00 3F
  can0  294   [8]  00 00 00 03 A9 AE 00 0B
  can0  309   [8]  00 00 00 00 00 00 00 75
  can0  367   [8]  EB 87 1E D1 37 7E FF 33
  can0  374   [7]  2B 00 00 00 00 00 3A
  can0  255   [8]  00 00 00 00 55 55 4C 0A
  can0  158   [8]  00 00 02 D5 00 00 00 24
  can0  097   [8]  7F C0 07 E4 00 00 00 0D
  can0  188   [6]  00 00 00 01 00 15
  can0  0E5   [4]  00 00 00 05
  can0  136   [8]  00 00 00 06 00 69 FE 0C
  can0  13A   [8]  00 00 00 00 00 00 00 0A
  can0  13F   [8]  00 43 00 43 00 00 00 07
  can0  17C   [8]  00 33 02 EC 00 27 00 09
  can0  182   [8]  00 00 02 EC 00 00 00 01
  can0  1DC   [4]  02 02 EC 00
  can0  333   [7]  00 00 00 00 00 00 3C
  can0  164   [8]  04 10 00 10 B5 00 00 25
  can0  1A4   [8]  00 00 00 00 00 00 00 09
  can0  1AA   [8]  7F FF 00 00 00 00 66 03
  can0  1B0   [7]  80 40 FF FB 00 00 08
  can0  1D0   [8]  00 00 00 00 00 00 00 0A
  can0  158   [8]  00 00 02 D6 00 00 00 32
  can0  097   [8]  7F C0 07 E4 00 00 00 1C
  can0  188   [6]  00 00 00 01 00 24
  can0  0E5   [4]  00 00 00 14
  can0  136   [8]  00 00 00 06 00 6C FE 18
  can0  13A   [8]  00 00 00 00 00 00 00 19
  can0  13F   [8]  00 43 00 43 FF F6 00 13
  can0  17C   [8]  00 33 02 EB 00 27 00 19
  can0  182   [8]  00 00 02 EB 00 00 00 11
  can0  164   [8]  04 10 00 10 B5 00 00 34
  can0  1A6   [8]  04 00 00 10 B5 00 00 02
  can0  39B   [2]  00 3E
  can0  039   [3]  00 00 1B
  can0  158   [8]  00 00 02 D6 00 00 00 05
  can0  097   [8]  7F C0 07 E0 00 00 00 2F
  can0  188   [6]  00 00 00 01 00 33
  can0  0E5   [4]  00 00 00 23
  can0  136   [8]  00 00 00 06 00 6C FE 27
  can0  13A   [8]  00 00 00 00 00 00 00 28
  can0  13F   [8]  00 43 00 43 00 00 00 25
  can0  17C   [8]  00 33 02 EA 00 28 00 28
  can0  182   [8]  00 00 02 EB 00 00 00 20
  can0  1DC   [4]  02 02 EA 11
  can0  164   [8]  04 10 00 10 B5 00 00 07
  can0  1A4   [8]  00 00 00 00 00 00 00 18
  can0  1AA   [8]  7F FF 00 00 00 00 67 11
  can0  1B0   [7]  80 40 FF FB 00 00 17
  can0  1D0   [8]  00 00 00 00 00 00 00 0A
  can0  158   [8]  00 00 02 D7 00 00 00 13
  can0  097   [8]  7F C0 07 E0 00 00 00 3E
  can0  188   [6]  00 00 00 01 00 06
  can0  0E5   [4]  00 00 00 32
  can0  136   [8]  00 00 00 06 00 6D FE 35
  can0  13A   [8]  00 00 00 00 00 00 00 37
  can0  13F   [8]  00 43 00 43 00 00 00 34
  can0  17C   [8]  00 33 02 EA 00 27 00 38
  can0  182   [8]  00 00 02 EB 00 00 00 3F
  can0  164   [8]  04 10 00 10 B5 00 00 16
  can0  1A6   [8]  04 00 00 10 B5 00 00 11
  can0  294   [8]  00 00 00 03 A9 AE 00 1A
  can0  255   [8]  00 00 00 00 55 55 4D 09
  can0  158   [8]  00 00 02 D7 00 00 00 22
  can0  097   [8]  7F C0 07 E4 00 00 00 0D
  can0  188   [6]  00 00 00 01 00 15
  can0  0E5   [4]  00 00 00 05
  can0  136   [8]  00 00 00 06 00 6C FF 08
  can0  13A   [8]  00 00 00 00 00 00 00 0A
  can0  13F   [8]  00 43 00 43 FF F6 00 04
  can0  17C   [8]  00 33 02 EA 00 27 00 0B
  can0  182   [8]  00 00 02 EA 00 00 00 03
  can0  1DC   [4]  02 02 EA 20
  can0  164   [8]  04 10 00 10 B5 00 00 25
  can0  1A4   [8]  00 00 00 00 00 00 00 27
  can0  1AA   [8]  7F FF 00 00 00 00 66 21
  can0  1B0   [7]  80 40 FF FB 00 00 26
  can0  1D0   [8]  00 00 00 00 00 00 00 0A
  can0  158   [8]  00 00 02 D7 00 00 00 31
  can0  097   [8]  7F C0 07 E4 00 00 00 1C
  can0  188   [6]  00 00 00 01 00 24
  can0  0E5   [4]  00 00 00 14
  can0  136   [8]  00 00 00 06 00 6A FF 19
  can0  13A   [8]  00 00 00 00 00 00 00 19
  can0  13F   [8]  00 43 00 43 00 00 00 16
  can0  17C   [8]  00 33 02 EA 00 28 00 19
  can0  182   [8]  00 00 02 EA 00 00 00 12
  can0  164   [8]  04 10 00 10 B5 00 00 34
  can0  1A6   [8]  04 00 00 10 B5 00 00 20
  can0  039   [3]  00 00 2A
  can0  158   [8]  00 00 02 D7 00 00 00 04
  can0  097   [8]  7F C0 07 E4 00 00 00 2B
  can0  188   [6]  00 00 00 01 00 33
  can0  6E5   [1]  1E
  can0  0E5   [4]  00 00 00 23
  can0  136   [8]  00 00 00 06 00 6A FF 28
  can0  13A   [8]  00 00 00 00 00 00 00 28
  can0  13F   [8]  00 43 00 43 00 00 00 25
  can0  17C   [8]  00 33 02 EB 00 27 00 28
  can0  182   [8]  00 00 02 EA 00 00 00 21
  can0  1DC   [4]  02 02 EB 3E
  can0  164   [8]  04 10 00 10 B5 00 00 07
  can0  1A4   [8]  00 00 00 00 00 00 00 36
  can0  1AA   [8]  7F FF 00 00 00 00 67 3F
  can0  1B0   [7]  80 40 FF FB 00 00 35
  can0  1D0   [8]  00 00 00 00 00 00 00 0A
  can0  158   [8]  00 00 02 D6 00 00 00 14
  can0  097   [8]  7F C0 07 E4 00 00 00 3A
  can0  188   [6]  00 00 00 01 00 06
  can0  0E5   [4]  00 00 00 32
  can0  136   [8]  00 00 00 06 00 6A FE 38
  can0  13A   [8]  00 00 00 00 00 00 00 37
  can0  13F   [8]  00 43 00 43 00 0A 00 3A
  can0  17C   [8]  00 33 02 EB 00 27 00 37
  can0  182   [8]  00 00 02 EB 00 00 00 3F
  can0  164   [8]  04 10 00 10 B5 00 00 16
  can0  1A6   [8]  04 00 00 10 B5 00 00 3F
  can0  294   [8]  00 00 00 03 A9 AE 00 29
  can0  255   [8]  00 00 00 00 55 55 4E 08
  can0  158   [8]  00 00 02 D7 00 00 00 22
  can0  097   [8]  7F C0 07 E0 00 00 00 01
  can0  188   [6]  00 00 00 01 00 15
  can0  0E5   [4]  00 00 00 05
  can0  136   [8]  00 00 00 06 00 6B FE 0A
  can0  13A   [8]  00 00 00 00 00 00 00 0A
  can0  13F   [8]  00 43 00 43 00 00 00 07
  can0  17C   [8]  00 33 02 EC 00 27 00 09
  can0  182   [8]  00 00 02 EB 00 00 00 02
  can0  1DC   [4]  02 02 EC 00
  can0  320   [8]  00 00 00 00 00 00 00 03
  can0  324   [8]  6F 36 15 58 00 00 00 0E
  can0  328   [8]  00 00 00 00 00 80 00 30
  can0  3C3   [8]  00 00 00 00 00 00 00 06
  can0  164   [8]  04 10 00 10 B5 00 00 25
  can0  3C7   [8]  00 00 00 00 00 00 00 02
  can0  3D7   [8]  B0 00 00 00 00 00 00 06
  can0  1A4   [8]  00 00 00 00 00 00 00 09
  can0  1AA   [8]  7F FF 00 00 00 00 66 03
  can0  1B0   [7]  80 40 FF FB 00 00 08
  can0  1D0   [8]  00 00 00 00 00 00 00 0A
  can0  305   [7]  C0 94 00 00 00 00 16
  can0  158   [8]  00 00 02 D7 00 00 00 31
  can0  097   [8]  7F C0 07 E0 00 00 00 10
  can0  188   [6]  00 00 00 01 00 24
  can0  0E5   [4]  00 00 00 14
  can0  136   [8]  00 00 00 06 00 6A FE 1A
  can0  13A   [8]  00 00 00 00 00 00 00 19
  can0  13F   [8]  00 43 00 43 00 14 00 11
  can0  17C   [8]  00 33 02 ED 00 27 00 17
  can0  182   [8]  00 00 02 ED 00 00 00 1F
  can0  164   [8]  04 10 00 10 B5 00 00 34
  can0  1A6   [8]  04 00 00 10 B5 00 00 02
  can0  309   [8]  00 00 00 00 00 00 00 48
  can0  367   [8]  EE 87 1E D1 37 7E FF 03
  can0  374   [7]  2B 00 00 00 00 00 0D
  can0  039   [3]  00 00 39
  can0  158   [8]  00 00 02 D7 00 00 00 04
  can0  097   [8]  7F C0 07 E0 00 00 00 2F
  can0  188   [6]  00 00 00 01 00 33
  can0  0E5   [4]  00 00 00 23
  can0  136   [8]  00 00 00 06 00 6B FE 28
  can0  13A   [8]  00 00 00 00 00 00 00 28
  can0  13F   [8]  00 43 00 43 00 00 00 25
  can0  17C   [8]  00 33 02 ED 00 28 00 25
  can0  182   [8]  00 00 02 ED 00 00 00 2E
  can0  1DC   [4]  02 02 ED 1E
  can0  333   [7]  00 00 00 00 00 00 0F
  can0  164   [8]  04 10 00 10 B5 00 00 07
  can0  1A4   [8]  00 00 00 00 00 00 00 18
  can0  1AA   [8]  7F FF 00 00 00 00 66 12
  can0  1B0   [7]  80 40 FF FB 00 00 17
  can0  1D0   [8]  00 00 00 00 00 00 00 0A
  can0  158   [8]  00 00 02 D7 00 00 00 13
  can0  097   [8]  7F C0 07 E0 00 00 00 3E
  can0  188   [6]  00 00 00 01 00 06
  can0  0E5   [4]  00 00 00 32
  can0  136   [8]  00 00 00 06 00 6B FE 37
  can0  13A   [8]  00 00 00 00 00 00 00 37
  can0  13F   [8]  00 43 00 43 00 00 00 34
  can0  17C   [8]  00 33 02 EC 00 27 00 36
  can0  182   [8]  00 00 02 ED 00 00 00 3D
  can0  164   [8]  04 10 00 10 B5 00 00 16
  can0  1A6   [8]  04 00 00 10 B5 00 00 11
  can0  294   [8]  00 00 00 03 A9 AE 00 38
  can0  39B   [2]  00 01
  can0  255   [8]  00 00 00 00 55 55 4F 07
  can0  158   [8]  00 00 02 D8 00 00 00 21
  can0  097   [8]  7F C0 07 E4 00 00 00 0D
  can0  188   [6]  00 00 00 01 00 15
  can0  0E5   [4]  00 00 00 05
  can0  136   [8]  00 00 00 06 00 6C FE 09
  can0  13A   [8]  00 00 00 00 00 00 00 0A
  can0  13F   [8]  00 43 00 43 FF F6 00 04
  can0  17C   [8]  00 33 02 EC 00 27 00 09
  can0  182   [8]  00 00 02 EC 00 00 00 01
  can0  1DC   [4]  02 02 EC 2E
  can0  164   [8]  04 10 00 10 B5 00 00 25
  can0  1A4   [8]  00 00 00 00 00 00 00 27
  can0  1AA   [8]  7F FF 00 00 00 00 66 21
  can0  1B0   [7]  80 40 FF FB 00 00 26
  can0  1D0   [8]  00 00 00 00 00 00 00 0A
  can0  158   [8]  00 00 02 D9 00 00 00 3F
  can0  097   [8]  7F C0 07 E4 00 00 00 1C
  can0  188   [6]  00 00 00 01 00 24
  can0  0E5   [4]  00 00 00 14
  can0  136   [8]  00 00 00 06 00 6B FE 19
  can0  13A   [8]  00 00 00 00 00 00 00 19
  can0  13F   [8]  00 43 00 43 00 00 00 16
  can0  17C   [8]  00 33 02 EC 00 28 00 17
  can0  182   [8]  00 00 02 EC 00 00 00 10
  can0  164   [8]  04 10 00 10 B5 00 00 34
  can0  1A6   [8]  04 00 00 10 B5 00 00 20
  can0  039   [3]  00 00 0C
  can0  158   [8]  00 00 02 D8 00 00 00 03
  can0  097   [8]  7F C0 07 E0 00 00 00 2F
  can0  188   [6]  00 00 00 01 00 33
  can0  0E5   [4]  00 00 00 23
  can0  136   [8]  00 00 00 06 00 6A FE 29
  can0  13A   [8]  00 00 00 00 00 00 00 28
  can0  13F   [8]  00 43 00 43 00 00 00 25
  can0  17C   [8]  00 33 02 ED 00 27 00 26
  can0  182   [8]  00 00 02 EC 00 00 00 2F
  can0  1DC   [4]  02 02 ED 3C
  can0  164   [8]  04 10 00 10 B5 00 00 07
  can0  1A4   [8]  00 00 00 00 00 00 00 36
  can0  1AA   [8]  7F FF 00 00 00 00 66 30
  can0  1B0   [7]  80 40 FF FB 00 00 35
  can0  1D0   [8]  00 00 00 00 00 00 00 0A
  can0  158   [8]  00 00 02 D8 00 00 00 12
  can0  097   [8]  7F C0 07 E0 00 00 00 3E
  can0  188   [6]  00 00 00 01 00 06
  can0  0E5   [4]  00 00 00 32
  can0  136   [8]  00 00 00 06 00 6A FE 38
  can0  13A   [8]  00 00 00 00 00 00 00 37
  can0  13F   [8]  00 43 00 43 00 0A 00 3A
  can0  17C   [8]  00 33 02 ED 00 27 00 35
  can0  182   [8]  00 00 02 ED 00 00 00 3D
  can0  164   [8]  04 10 00 10 B5 00 00 16
  can0  1A6   [8]  04 00 00 10 B5 00 00 3F
  can0  294   [8]  00 00 00 03 A9 AE 00 0B
  can0  3C5   [8]  00 00 00 00 00 00 00 04
  can0  3C6   [8]  00 00 00 00 00 00 00 03
  can0  255   [8]  00 00 00 00 55 55 50 06
  can0  158   [8]  00 00 02 D8 00 00 00 21
  can0  097   [8]  7F C0 07 E0 00 00 00 01
  can0  188   [6]  00 00 00 01 00 15
  can0  0E5   [4]  00 00 00 05
  can0  136   [8]  00 00 00 06 00 6B FE 0A
  can0  13A   [8]  00 00 00 00 00 00 00 0A
  can0  13F   [8]  00 43 00 43 00 00 00 07
  can0  17C   [8]  00 33 02 ED 00 27 00 08
  can0  182   [8]  00 00 02 ED 00 00 00 00
  can0  1DC   [4]  02 02 ED 0F
  can0  164   [8]  04 10 00 10 B6 00 00 24
  can0  1A4   [8]  00 00 00 00 00 00 00 09
  can0  1AA   [8]  7F FF 00 00 00 00 66 03
  can0  1B0   [7]  80 40 FF FB 00 00 08
  can0  1D0   [8]  00 00 00 00 00 00 00 0A
  can0  158   [8]  00 00 02 D8 00 00 00 30
  can0  097   [8]  7F C0 07 E4 00 00 00 1C
  can0  188   [6]  00 00 00 01 00 24
  can0  0E5   [4]  00 00 00 14
  can0  136   [8]  00 00 00 06 00 6C FE 18
  can0  13A   [8]  00 00 00 00 00 00 00 19
  can0  13F   [8]  00 43 00 43 00 00 00 16
  can0  17C   [8]  00 33 02 ED 00 27 00 17
  can0  182   [8]  00 00 02 ED 00 00 00 1F
  can0  164   [8]  04 10 00 10 B5 00 00 34
  can0  1A6   [8]  04 00 00 10 B5 00 00 02
  can0  039   [3]  00 00 1B
  can0  158   [8]  00 00 02 D8 00 00 00 03
  can0  097   [8]  7F C0 07 E0 00 00 00 2F
  can0  188   [6]  00 00 00 01 00 33
  can0  0E5   [4]  00 00 00 23
  can0  136   [8]  00 00 00 06 00 6C FE 27
  can0  13A   [8]  00 00 00 00 00 00 00 28
  can0  13F   [8]  00 43 00 43 00 00 00 25
  can0  17C   [8]  00 33 02 ED 00 28 00 25
  can0  182   [8]  00 00 02 ED 00 00 00 2E
  can0  1DC   [4]  02 02 ED 1E
  can0  320   [8]  00 00 00 00 00 00 00 12
  can0  324   [8]  6F 36 15 59 00 00 00 1C
  can0  328   [8]  00 00 00 00 00 80 00 03
  can0  164   [8]  04 10 00 10 B5 00 00 07
  can0  1A4   [8]  00 00 00 00 00 00 00 18
  can0  1AA   [8]  7F FF 00 00 00 00 67 11
  can0  1B0   [7]  80 40 FF FB 00 00 17
  can0  1D0   [8]  00 00 00 00 00 00 00 0A
  can0  305   [7]  C0 94 00 00 00 00 25
  can0  097   [8]  7F C0 07 E0 00 00 00 3E
  can0  158   [8]  00 00 02 D8 00 00 00 12
  can0  188   [6]  00 00 00 01 00 06
  can0  0E5   [4]  00 00 00 32
  can0  136   [8]  00 00 00 06 00 6B FE 37
  can0  13A   [8]  00 00 00 00 00 00 00 37
  can0  13F   [8]  00 43 00 43 00 00 00 34
  can0  17C   [8]  00 33 02 EE 00 27 00 34
  can0  182   [8]  00 00 02 ED 00 00 00 3D
  can0  164   [8]  04 10 00 10 B5 00 00 16
  can0  1A6   [8]  04 00 00 10 B5 00 00 11
  can0  294   [8]  00 00 00 03 A9 AE 00 1A
  can0  309   [8]  00 00 00 00 00 00 00 57
  can0  367   [8]  EF 87 1E D1 37 7E FF 11
  can0  374   [7]  2B 00 00 00 00 00 1C
  can0  405   [8]  00 00 24 00 00 00 80 10
  can0  428   [7]  01 05 00 00 25 31 18
  can0  440   [8]  31 01 02 2C 9A 99 38 1A
  can0  255   [8]  00 00 00 00 55 55 51 05
  can0  158   [8]  00 00 02 D9 00 00 00 20
  can0  097   [8]  7F C0 07 E4 00 00 00 0D
  can0  188   [6]  00 00 00 01 00 15
  can0  0E5   [4]  00 00 00 05
  can0  136   [8]  00 00 00 06 00 6B FD 0B
  can0  13A   [8]  00 00 00 00 00 00 00 0A
  can0  13F   [8]  00 44 00 43 00 0A 00 0C
  can0  17C   [8]  00 33 02 EE 00 27 00 07
  can0  182   [8]  00 00 02 EE 00 00 00 0F
  can0  1DC   [4]  02 02 EE 2C
  can0  333   [7]  00 00 00 00 00 00 1E
  can0  164   [8]  04 10 00 10 B5 00 00 25
  can0  1A4   [8]  00 00 00 00 00 00 00 27
  can0  1AA   [8]  7F FF 00 00 00 00 66 21
  can0  1B0   [7]  80 40 FF FB 00 00 26
  can0  1D0   [8]  00 00 00 00 00 00 00 0A
  can0  158   [8]  00 00 02 DA 00 00 00 3E
  can0  097   [8]  7F C0 07 E4 00 00 00 1C
  can0  188   [6]  00 00 00 01 00 24
  can0  0E5   [4]  00 00 00 14
  can0  136   [8]  00 00 00 06 00 6B FD 1A
  can0  13A   [8]  00 00 00 00 00 00 00 19
  can0  13F   [8]  00 44 00 43 00 00 00 15
  can0  17C   [8]  00 33 02 EE 00 28 00 15
  can0  182   [8]  00 00 02 EE 00 00 00 1E
  can0  164   [8]  04 10 00 10 B5 00 00 34
  can0  1A6   [8]  04 00 00 10 B5 00 00 20
  can0  39B   [2]  00 10
  can0  039   [3]  00 00 2A
  can0  158   [8]  00 00 02 DA 00 00 00 01
  can0  097   [8]  7F C0 07 E4 00 00 00 2B
  can0  188   [6]  00 00 00 01 00 33
  can0  0E5   [4]  00 00 00 23
  can0  136   [8]  00 00 00 06 00 6C FD 28
  can0  13A   [8]  00 00 00 00 00 00 00 28
  can0  13F   [8]  00 44 00 43 00 00 00 24
  can0  17C   [8]  00 33 02 ED 00 27 00 26
  can0  182   [8]  00 00 02 EE 00 00 00 2D
  can0  1DC   [4]  02 02 ED 3C
  can0  164   [8]  04 10 00 10 B5 00 00 07
  can0  1A4   [8]  00 00 00 00 00 00 00 36
  can0  1AA   [8]  7F FF 00 00 00 00 66 30
  can0  1B0   [7]  80 40 FF FB 00 00 35
  can0  1D0   [8]  00 00 00 00 00 00 00 0A
  can0  158   [8]  00 00 02 DA 00 00 00 10
  can0  097   [8]  7F C0 07 E4 00 00 00 3A
  can0  188   [6]  00 00 00 01 00 06
  can0  0E5   [4]  00 00 00 32
  can0  136   [8]  00 00 00 06 00 6C FE 36
  can0  13A   [8]  00 00 00 00 00 00 00 37
  can0  13F   [8]  00 43 00 43 FF F6 00 31
  can0  17C   [8]  00 33 02 EC 00 27 00 36
  can0  182   [8]  00 00 02 ED 00 00 00 3D
  can0  164   [8]  04 10 00 10 B5 00 00 16
  can0  1A6   [8]  04 00 00 10 B5 00 00 3F
  can0  294   [8]  00 00 00 03 A9 AE 00 29
  can0  255   [8]  00 00 00 00 55 55 52 04
  can0  158   [8]  00 00 02 DA 00 00 00 2F
  can0  097   [8]  7F C0 07 E4 00 00 00 0D
  can0  188   [6]  00 00 00 01 00 15
  can0  0E5   [4]  00 00 00 05
  can0  136   [8]  00 00 00 06 00 6B FE 0A
  can0  13A   [8]  00 00 00 00 00 00 00 0A
  can0  13F   [8]  00 43 00 43 00 00 00 07
  can0  17C   [8]  00 33 02 EC 00 27 00 09
  can0  182   [8]  00 00 02 ED 00 00 00 00
  can0  1DC   [4]  02 02 EC 00
  can0  164   [8]  04 10 00 10 B5 00 00 25
  can0  1A4   [8]  00 00 00 00 00 00 00 09
  can0  1AA   [8]  7F FF 00 00 00 00 67 02
  can0  1B0   [7]  80 40 FF FB 00 00 08
  can0  1D0   [8]  00 00 00 00 00 00 00 0A
  can0  158   [8]  00 00 02 D9 00 00 00 3F
  can0  097   [8]  7F C0 07 E0 00 00 00 10
  can0  188   [6]  00 00 00 01 00 24
  can0  0E5   [4]  00 00 00 14
  can0  136   [8]  00 00 00 06 00 6C FE 18
  can0  13A   [8]  00 00 00 00 00 00 00 19
  can0  13F   [8]  00 43 00 43 00 00 00 16
  can0  17C   [8]  00 33 02 ED 00 27 00 17
  can0  182   [8]  00 00 02 ED 00 00 00 1F
  can0  164   [8]  04 10 00 10 B5 00 00 34
  can0  1A6   [8]  04 00 00 10 B5 00 00 02
  can0  039   [3]  00 00 39
  can0  158   [8]  00 00 02 D9 00 00 00 02
  can0  097   [8]  7F C0 07 E0 00 00 00 2F
  can0  188   [6]  00 00 00 01 00 33
  can0  6C4   [1]  11
  can0  0E5   [4]  00 00 00 23
  can0  136   [8]  00 00 00 06 00 6C FE 27
  can0  13A   [8]  00 00 00 00 00 00 00 28
  can0  13F   [8]  00 43 00 43 00 00 00 25
  can0  17C   [8]  00 34 02 ED 00 27 00 25
  can0  182   [8]  00 00 02 ED 00 00 00 2E
  can0  1DC   [4]  02 02 ED 1E
  can0  164   [8]  04 10 00 10 B5 00 00 07
  can0  1A4   [8]  00 00 00 00 00 00 00 18
  can0  1AA   [8]  7F FF 00 00 00 00 67 11
  can0  1B0   [7]  80 40 FF FB 00 00 17
  can0  1D0   [8]  00 00 00 00 00 00 00 0A
  can0  158   [8]  00 00 02 D9 00 00 00 11
  can0  097   [8]  7F C0 07 E4 00 00 00 3A
  can0  188   [6]  00 00 00 01 00 06
  can0  0E5   [4]  00 00 00 32
  can0  136   [8]  00 00 00 06 00 6D FE 35
  can0  13A   [8]  00 00 00 00 00 00 00 37
  can0  13F   [8]  00 43 00 43 00 00 00 34
  can0  17C   [8]  00 34 02 EC 00 27 00 35
  can0  182   [8]  00 00 02 ED 00 00 00 3D
  can0  164   [8]  04 10 00 10 B5 00 00 16
  can0  1A6   [8]  04 00 00 10 B5 00 00 11
  can0  294   [8]  00 00 00 03 A9 AE 00 38
  can0  255   [8]  00 00 00 00 55 55 53 03
  can0  158   [8]  00 00 02 D9 00 00 00 20
  can0  097   [8]  7F C0 07 E4 00 00 00 0D
  can0  188   [6]  00 00 00 01 00 15
  can0  0E5   [4]  00 00 00 05
  can0  136   [8]  00 00 00 06 00 6B FF 09
  can0  13A   [8]  00 00 00 00 00 00 00 0A
  can0  13F   [8]  00 43 00 42 FF E2 00 0A
  can0  17C   [8]  00 34 02 EA 00 27 00 0A
  can0  182   [8]  00 00 02 EA 00 00 00 03
  can0  1DC   [4]  02 02 EA 20
  can0  320   [8]  00 00 00 00 00 00 00 21
  can0  324   [8]  6F 36 15 59 00 00 00 2B
  can0  328   [8]  00 00 00 00 00 80 00 12
  can0  3C3   [8]  00 00 00 00 00 00 00 15
  can0  3C7   [8]  00 00 00 00 00 00 00 11
  can0  3D7   [8]  B0 00 00 00 00 00 00 51
  can0  164   [8]  04 10 00 10 B5 00 00 25
  can0  40C   [8]  01 35 46 4E 52 4C 35 22
  can0  441   [8]  09 FF FF FF FF FF FF 20
  can0  454   [8]  63 F4 02 3E 9C 00 00 25
  can0  6C1   [1]  14
  can0  1A4   [8]  00 00 00 00 00 00 00 27
  can0  1AA   [8]  7F FF 00 00 00 00 67 20
  can0  1B0   [7]  80 40 FF FB 00 00 26
  can0  1D0   [8]  00 00 00 00 00 00 00 0A
  can0  158   [8]  00 00 02 D9 00 00 00 3F
  can0  097   [8]  7F C0 07 E4 00 00 00 1C
  can0  188   [6]  00 00 00 01 00 24
  can0  305   [7]  C0 94 00 00 00 00 34
  can0  0E5   [4]  00 00 00 14
  can0  136   [8]  00 00 00 06 00 6B FF 18
  can0  13A   [8]  00 00 00 00 00 00 00 19
  can0  13F   [8]  00 43 00 42 00 00 00 17
  can0  17C   [8]  00 34 02 E9 00 27 00 1A
  can0  182   [8]  00 00 02 EA 00 00 00 12
  can0  164   [8]  04 10 00 10 B5 00 00 34
  can0  1A6   [8]  04 00 00 10 B5 00 00 20
  can0  309   [8]  00 00 00 00 00 00 00 66
  can0  367   [8]  F5 87 1E D1 37 7E FF 29
  can0  374   [7]  2B 00 00 00 00 00 2B
  can0  158   [8]  00 00 02 D9 00 00 00 02
  can0  039   [3]  00 00 0C
  can0  097   [8]  7F C0 07 E4 00 00 00 2B
  can0  188   [6]  00 00 00 01 00 33
  can0  0E5   [4]  00 00 00 23
  can0  136   [8]  00 00 00 06 00 6C FF 26
  can0  13A   [8]  00 00 00 00 00 00 00 28
  can0  13F   [8]  00 43 00 42 00 00 00 26
  can0  17C   [8]  00 34 02 EB 00 27 00 27
  can0  182   [8]  00 00 02 EA 00 00 00 21
  can0  1DC   [4]  02 02 EB 3E
  can0  333   [7]  00 00 00 00 00 00 2D
  can0  164   [8]  04 10 00 10 B5 00 00 07
  can0  1A4   [8]  00 00 00 00 00 00 00 36
  can0  1AA   [8]  7F FF 00 00 00 00 66 30
  can0  1B0   [7]  80 40 FF FB 00 00 35
  can0  1D0   [8]  00 00 00 00 00 00 00 0A
  can0  158   [8]  00 00 02 D9 00 00 00 11
  can0  097   [8]  7F 80 07 E4 00 00 00 3E
  can0  188   [6]  00 00 00 01 00 06
  can0  0E5   [4]  00 00 00 32
  can0  136   [8]  00 00 00 06 00 6C FE 36
  can0  13A   [8]  00 00 00 00 00 00 00 37
  can0  13F   [8]  00 43 00 43 00 14 00 3F
  can0  17C   [8]  00 34 02 EC 00 27 00 35
  can0  182   [8]  00 00 02 EC 00 00 00 3E
  can0  39B   [2]  00 2F
  can0  164   [8]  04 10 00 10 B5 00 00 16
  can0  1A6   [8]  04 00 00 10 B5 00 00 3F
  can0  294   [8]  00 00 00 03 A9 AE 00 0B
  can0  255   [8]  00 00 00 00 55 55 54 02
  can0  158   [8]  00 00 02 D8 00 00 00 21
  can0  097   [8]  7F C0 07 E4 00 00 00 0D
  can0  188   [6]  00 00 00 01 00 15
  can0  0E5   [4]  00 00 00 05
  can0  136   [8]  00 00 00 06 00 6D FE 08
  can0  13A   [8]  00 00 00 00 00 00 00 0A
  can0  13F   [8]  00 43 00 43 00 00 00 07
  can0  17C   [8]  00 34 02 ED 00 27 00 07
  can0  182   [8]  00 00 02 EC 00 00 00 01
  can0  1DC   [4]  02 02 ED 0F
  can0  164   [8]  04 10 00 10 B5 00 00 25
  can0  1A4   [8]  00 00 00 00 00 00 00 09
  can0  1AA   [8]  7F FF 00 00 00 00 66 03
  can0  1B0   [7]  80 40 FF FB 00 00 08
  can0  1D0   [8]  00 00 00 00 00 00 00 0A
  can0  158   [8]  00 00 02 D8 00 00 00 30
  can0  097   [8]  7F 80 07 E4 00 00 00 10
  can0  188   [6]  00 00 00 01 00 24
  can0  0E5   [4]  00 00 00 14
  can0  136   [8]  00 00 00 06 00 6D FE 17
  can0  13A   [8]  00 00 00 00 00 00 00 19
